(1531471699.132994) can0 1A0#0000000000000069
(1531471699.134132) can0 1A0#0000000000000069
(1531471699.135979) can0 1A0#0000000000000069
(1531471699.137972) can0 324#0000000000000069
(1531471699.139793) can0 324#0000000000000069
(1531471699.141873) can0 320#0000000000000069
(1531471699.143807) can0 3D0#0080000000000000
(1531471699.152711) can0 1A0#0000000000000069
(1531471699.154538) can0 1A0#0000000000000069
(1531471699.164291) can0 1A0#0000000000000069
(1531471699.164329) can0 324#0000000000000069
(1531471699.164331) can0 320#0000000000000069
(1531471699.164332) can0 324#0000000000000069
(1531471699.164333) can0 420#85FFFF00007FFF84
(1531471699.175112) can0 1A0#0000000000000069
(1531471699.177096) can0 1A0#0000000000000069
(1531471699.179095) can0 322#0000030000000069
(1531471699.181059) can0 320#0000000000000069
(1531471699.182954) can0 324#0000000000000069
(1531471699.184985) can0 5A0#0180000000000000
(1531471699.192642) can0 1A0#0000000000000069
(1531471699.193703) can0 1A0#0000000000000069
(1531471699.195678) can0 1A0#0000000000000069
(1531471699.197756) can0 324#0000000000000069
(1531471699.199700) can0 320#0000000000000069
(1531471699.201657) can0 324#0000000000000069
(1531471699.203599) can0 1A0#0080000000000000
(1531471699.205590) can0 5A0#0180000000000000
(1531471699.214487) can0 1A0#0000000000000069
(1531471699.216446) can0 1A0#0000000000000069
(1531471699.218426) can0 322#0000030000000069
(1531471699.220449) can0 320#0000000000000069
(1531471699.222341) can0 324#0000000000000069
(1531471699.224351) can0 5A0#0180000000000000
(1531471699.232744) can0 1A0#0000000000000069
(1531471699.234068) can0 1A0#0000000000000069
(1531471699.236042) can0 1A0#0000000000000069
(1531471699.237995) can0 324#0000000000000069
(1531471699.239988) can0 324#0000000000000069
(1531471699.241919) can0 322#0000030000000069
(1531471699.243999) can0 322#0000030000000069
(1531471699.252602) can0 1A0#0000000000000069
(1531471699.254663) can0 1A0#0000000000000069
(1531471699.256605) can0 1A0#0000000000000069
(1531471699.258566) can0 320#0000000000000069
(1531471699.260507) can0 322#0000030000000069
(1531471699.262474) can0 320#0000000000000069
(1531471699.264437) can0 520#010100008031C000
(1531471699.275264) can0 1A0#0000000000000069
(1531471699.277196) can0 1A0#0000000000000069
(1531471699.279352) can0 324#0000000000000069
(1531471699.281307) can0 320#0000000000000069
(1531471699.283240) can0 320#0000000000000069
(1531471699.285220) can0 280#490E00000E001B0E
(1531471699.292814) can0 1A0#0000000000000069
(1531471699.294936) can0 1A0#0000000000000069
(1531471699.296972) can0 1A0#0000000000000069
(1531471699.298770) can0 320#0000000000000069
(1531471699.300723) can0 322#0000030000000069
(1531471699.302724) can0 320#0000000000000069
(1531471699.304695) can0 5A0#0180000000000000
(1531471699.306659) can0 727#04010100020000
(1531471699.314494) can0 1A0#0000000000000069
(1531471699.316440) can0 1A0#0000000000000069
(1531471699.318403) can0 324#0000000000000069
(1531471699.320363) can0 320#0000000000000069
(1531471699.322327) can0 324#0000000000000069
(1531471699.324288) can0 5A0#0180000000000000
(1531471699.335120) can0 1A0#0000000000000069
(1531471699.337079) can0 1A0#0000000000000069
(1531471699.339029) can0 324#0000000000000069
(1531471699.340981) can0 320#0000000000000069
(1531471699.343126) can0 324#0000000000000069
(1531471699.344969) can0 5A0#0180000000000000
(1531471699.352585) can0 1A0#0000000000000069
(1531471699.354744) can0 1A0#0000000000000069
(1531471699.356732) can0 1A0#0000000000000069
(1531471699.358710) can0 320#0000000000000069
(1531471699.360877) can0 324#0000000000000069
(1531471699.362628) can0 322#0000030000000069
(1531471699.364636) can0 5A0#0180000000000000
(1531471699.375387) can0 1A0#0000000000000069
(1531471699.377310) can0 1A0#0000000000000069
(1531471699.379279) can0 320#0000000000000069
(1531471699.381286) can0 324#0000000000000069
(1531471699.383199) can0 1A0#0080000000000000
(1531471699.385196) can0 5A0#0180000000000000
(1531471699.392515) can0 1A0#0000000000000069
(1531471699.393253) can0 1A0#0000000000000069
(1531471699.394961) can0 1A0#0000000000000069
(1531471699.396916) can0 322#0000030000000069
(1531471699.398902) can0 320#0000000000000069
(1531471699.400836) can0 324#0000000000000069
(1531471699.402805) can0 1A0#0080000000000000
(1531471699.404768) can0 5A0#0180000000000000
(1531471699.411999) can0 1A0#0000000000000069
(1531471699.417751) can0 1A0#0000000000000069
(1531471699.417760) can0 1A0#0000000000000069
(1531471699.417761) can0 322#0000030000000069
(1531471699.418559) can0 322#0000030000000069
(1531471699.420515) can0 324#0000000000000069
(1531471699.422497) can0 1A0#0080000000000000
(1531471699.424448) can0 5A0#0180000000000000
(1531471699.431585) can0 1A0#0000000000000069
(1531471699.432308) can0 1A0#0000000000000069
(1531471699.434203) can0 1A0#0000000000000069
(1531471699.436167) can0 1A0#0000000000000069
(1531471699.438133) can0 320#0000000000000069
(1531471699.440093) can0 324#0000000000000069
(1531471699.442045) can0 1A0#0080000000000000
(1531471699.444048) can0 5A0#0180000000000000
(1531471699.453194) can0 1A0#0000000000000069
(1531471699.453202) can0 1A0#0000000000000069
(1531471699.454824) can0 1A0#0000000000000069
(1531471699.456774) can0 324#0000000000000069
(1531471699.458725) can0 322#0000030000000069
(1531471699.460702) can0 320#0000000000000069
(1531471699.462663) can0 5A0#0180000000000000
(1531471699.473582) can0 1A0#0000000000000069
(1531471699.475478) can0 1A0#0000000000000069
(1531471699.477476) can0 320#0000000000000069
(1531471699.479383) can0 322#0000030000000069
(1531471699.481361) can0 320#0000000000000069
(1531471699.483298) can0 280#490E00000E001B0E
(1531471699.490641) can0 1A0#0000000000000069
(1531471699.491300) can0 1A0#0000000000000069
(1531471699.493148) can0 1A0#0000000000000069
(1531471699.495070) can0 1A0#0000000000000069
(1531471699.497003) can0 324#0000000000000069
(1531471699.498964) can0 320#0000000000000069
(1531471699.500940) can0 324#0000000000000069
(1531471699.502880) can0 5A0#0180000000000000
(1531471699.506856) can0 727#04010100020000
(1531471699.510552) can0 1A0#0000000000000069
(1531471699.512703) can0 1A0#0000000000000069
(1531471699.514684) can0 1A0#0000000000000069
(1531471699.516636) can0 322#0000030000000069
(1531471699.518599) can0 324#0000000000000069
(1531471699.521364) can0 322#0000030000000069
(1531471699.522600) can0 5A0#0180000000000000
(1531471699.533414) can0 1A0#0000000000000069
(1531471699.535311) can0 1A0#0000000000000069
(1531471699.537320) can0 322#0000030000000069
(1531471699.539329) can0 324#0000000000000069
(1531471699.541138) can0 1A0#0080000000000000
(1531471699.543237) can0 5A0#0180000000000000
(1531471699.550251) can0 1A0#0000000000000069
(1531471699.550972) can0 1A0#0000000000000069
(1531471699.552944) can0 1A0#0000000000000069
(1531471699.555352) can0 1A0#0000000000000069
(1531471699.556896) can0 320#0000000000000069
(1531471699.558863) can0 320#0000000000000069
(1531471699.560873) can0 324#0000000000000069
(1531471699.562733) can0 5A0#0180000000000000
(1531471699.570439) can0 1A0#0000000000000069
(1531471699.572573) can0 1A0#0000000000000069
(1531471699.574535) can0 1A0#0000000000000069
(1531471699.576514) can0 322#0000030000000069
(1531471699.578456) can0 320#0000000000000069
(1531471699.580422) can0 320#0000000000000069
(1531471699.582414) can0 5A0#0180000000000000
(1531471699.593241) can0 1A0#0000000000000069
(1531471699.595168) can0 1A0#0000000000000069
(1531471699.597167) can0 320#0000000000000069
(1531471699.599170) can0 322#0000030000000069
(1531471699.601124) can0 320#0000000000000069
(1531471699.603101) can0 280#490E00000E001B0E
(1531471699.610568) can0 1A0#0000000000000069
(1531471699.612829) can0 1A0#0000000000000069
(1531471699.614819) can0 1A0#0000000000000069
(1531471699.616727) can0 324#0000000000000069
(1531471699.618693) can0 320#0000000000000069
(1531471699.620665) can0 324#0000000000000069
(1531471699.622634) can0 5A0#0180000000000000
(1531471699.630432) can0 1A0#0000000000000069
(1531471699.632490) can0 1A0#0000000000000069
(1531471699.634409) can0 1A0#0000000000000069
(1531471699.636373) can0 322#0000030000000069
(1531471699.638322) can0 320#0000000000000069
(1531471699.640293) can0 320#0000000000000069
(1531471699.642258) can0 5A0#0180000000000000
(1531471699.653117) can0 1A0#0000000000000069
(1531471699.655008) can0 1A0#0000000000000069
(1531471699.656959) can0 320#0000000000000069
(1531471699.658931) can0 322#0000030000000069
(1531471699.660881) can0 320#0000000000000069
(1531471699.662855) can0 280#490E00000E001B0E
(1531471699.670482) can0 1A0#0000000000000069
(1531471699.672820) can0 1A0#0000000000000069
(1531471699.674741) can0 1A0#0000000000000069
(1531471699.676664) can0 324#0000000000000069
(1531471699.678627) can0 324#0000000000000069
(1531471699.680608) can0 320#0000000000000069
(1531471699.682537) can0 5A0#0180000000000000
(1531471699.693428) can0 1A0#0000000000000069
(1531471699.695243) can0 1A0#0000000000000069
(1531471699.697203) can0 322#0000030000000069
(1531471699.699167) can0 324#0000000000000069
(1531471699.701153) can0 320#0000000000000069
(1531471699.703107) can0 5A0#0180000000000000
(1531471699.704912) can0 727#04010100020000
(1531471699.710398) can0 1A0#0000000000000069
(1531471699.711137) can0 1A0#0000000000000069
(1531471699.712888) can0 1A0#0000000000000069
(1531471699.714874) can0 1A0#0000000000000069
(1531471699.716814) can0 320#0000000000000069
(1531471699.718774) can0 324#0000000000000069
(1531471699.720738) can0 322#0000030000000069
(1531471699.722706) can0 5A0#0180000000000000
(1531471699.730606) can0 1A0#0000000000000069
(1531471699.732519) can0 1A0#0000000000000069
(1531471699.734500) can0 1A0#0000000000000069
(1531471699.736473) can0 320#0000000000000069
(1531471699.738445) can0 322#0000030000000069
(1531471699.740416) can0 320#0000000000000069
(1531471699.742358) can0 5A0#0180000000000000
(1531471699.753159) can0 1A0#0000000000000069
(1531471699.755105) can0 1A0#0000000000000069
(1531471699.757056) can0 322#0000030000000069
(1531471699.759036) can0 322#0000030000000069
(1531471699.761031) can0 320#0000000000000069
(1531471699.762953) can0 280#490E00000E001B0E
(1531471699.771371) can0 1A0#0000000000000069
(1531471699.771378) can0 1A0#0000000000000069
(1531471699.772801) can0 1A0#0000000000000069
(1531471699.774762) can0 1A0#0000000000000069
(1531471699.776809) can0 320#0000000000000069
(1531471699.778673) can0 324#0000000000000069
(1531471699.780669) can0 324#0000000000000069
(1531471699.782668) can0 5A0#0180000000000000
(1531471699.790435) can0 1A0#0000000000000069
(1531471699.792401) can0 1A0#0000000000000069
(1531471699.794496) can0 1A0#0000000000000069
(1531471699.796324) can0 320#0000000000000069
(1531471699.798303) can0 324#0000000000000069
(1531471699.800251) can0 320#0000000000000069
(1531471699.802205) can0 5A0#0180000000000000
(1531471699.813050) can0 1A0#0000000000000069
(1531471699.814968) can0 1A0#0000000000000069
(1531471699.816926) can0 320#0000000000000069
(1531471699.818886) can0 324#0000000000000069
(1531471699.820851) can0 1A0#0080000000000000
(1531471699.822809) can0 5A0#0180000000000000
(1531471699.829863) can0 1A0#0000000000000069
(1531471699.830656) can0 1A0#0000000000000069
(1531471699.832627) can0 1A0#0000000000000069
(1531471699.834624) can0 322#0000030000000069
(1531471699.836606) can0 322#0000030000000069
(1531471699.838581) can0 320#0000000000000069
(1531471699.840469) can0 3D0#0080000000000000
(1531471699.849573) can0 1A0#0000000000000069
(1531471699.851299) can0 1A0#0000000000000069
(1531471699.853234) can0 1A0#0000000000000069
(1531471699.855179) can0 320#0000000000000069
(1531471699.857160) can0 324#0000000000000069
(1531471699.859080) can0 320#0000000000000069
(1531471699.861122) can0 5A0#0180000000000000
(1531471699.871897) can0 1A0#0000000000000069
(1531471699.873830) can0 1A0#0000000000000069
(1531471699.875790) can0 322#0000030000000069
(1531471699.877810) can0 324#0000000000000069
(1531471699.879719) can0 1A0#0080000000000000
(1531471699.881698) can0 5A0#0180000000000000
(1531471699.889029) can0 1A0#0000000000000069
(1531471699.889704) can0 1A0#0000000000000069
(1531471699.891538) can0 1A0#0000000000000069
(1531471699.893592) can0 322#0000030000000069
(1531471699.895469) can0 320#0000000000000069
(1531471699.897364) can0 320#1A00FFA900020090
(1531471699.899349) can0 320#0000000000000069
(1531471699.901328) can0 280#490E00000E001B0E
(1531471699.904957) can0 727#04010100020000
(1531471699.908765) can0 1A0#0000000000000069
(1531471699.911134) can0 1A0#0000000000000069
(1531471699.913071) can0 1A0#0000000000000069
(1531471699.915060) can0 324#0000000000000069
(1531471699.917007) can0 322#0000030000000069
(1531471699.919010) can0 322#0000030000000069
(1531471699.920984) can0 5A0#0180000000000000
(1531471699.931751) can0 1A0#0000000000000069
(1531471699.933689) can0 1A0#0000000000000069
(1531471699.935665) can0 322#0000030000000069
(1531471699.937633) can0 320#1A00FFA900040090
(1531471699.939591) can0 320#0000000000000069
(1531471699.941552) can0 5A0#0180000000000000
(1531471699.948902) can0 1A0#0000000000000069
(1531471699.949590) can0 1A0#0000000000000069
(1531471699.951369) can0 1A0#0000000000000069
(1531471699.954209) can0 1A0#0000000000000069
(1531471699.955311) can0 320#0000000000000069
(1531471699.957319) can0 322#0000030000000069
(1531471699.959272) can0 324#0000000000000069
(1531471699.961292) can0 5A0#0180000000000000
(1531471699.968942) can0 1A0#0000000000000069
(1531471699.970995) can0 1A0#0000000000000069
(1531471699.972940) can0 1A0#0000000000000069
(1531471699.974900) can0 322#0000030000000069
(1531471699.976997) can0 320#0000000000000069
(1531471699.978849) can0 320#0000000000000069
(1531471699.980803) can0 5A0#0180000000000000
(1531471699.991642) can0 1A0#0000000000000069
(1531471699.993611) can0 1A0#0000000000000069
(1531471699.995525) can0 320#0000000000000069
(1531471699.997486) can0 324#0000000000000069
(1531471699.999467) can0 324#0000000000000069
(1531471700.001434) can0 5A0#0180000000000000
(1531471700.009072) can0 1A0#0000000000000069
(1531471700.011199) can0 1A0#0000000000000069
(1531471700.013249) can0 1A0#0000000000000069
(1531471700.015154) can0 322#0000030000000069
(1531471700.017139) can0 322#0000030000000069
(1531471700.019077) can0 324#0000000000000069
(1531471700.021022) can0 5A0#0180000000000000
(1531471700.028869) can0 1A0#0000000000000069
(1531471700.030925) can0 1A0#0000000000000069
(1531471700.032820) can0 1A0#0000000000000069
(1531471700.034775) can0 322#0000030000000069
(1531471700.036723) can0 320#0000000000000069
(1531471700.038687) can0 320#0000000000000069
(1531471700.040650) can0 5A0#0180000000000000
(1531471700.051480) can0 1A0#0000000000000069
(1531471700.053426) can0 1A0#0000000000000069
(1531471700.056537) can0 320#0000000000000069
(1531471700.057332) can0 324#0000000000000069
(1531471700.059341) can0 324#0000000000000069
(1531471700.061312) can0 5A0#0180000000000000
(1531471700.068899) can0 1A0#0000000000000069
(1531471700.071104) can0 1A0#0000000000000069
(1531471700.073057) can0 1A0#0000000000000069
(1531471700.075020) can0 322#0000030000000069
(1531471700.076979) can0 320#0000000000000069
(1531471700.078963) can0 322#0000030000000069
(1531471700.080931) can0 5A0#0180000000000000
(1531471700.091716) can0 1A0#0000000000000069
(1531471700.093706) can0 1A0#0000000000000069
(1531471700.095619) can0 322#0000030000000069
(1531471700.097566) can0 322#0000030000000069
(1531471700.099554) can0 1A0#0080000000000000
(1531471700.101540) can0 5A0#0180000000000000
(1531471700.104773) can0 727#04010100020000
(1531471700.108664) can0 1A0#0000000000000069
(1531471700.109429) can0 1A0#0000000000000069
(1531471700.111377) can0 1A0#0000000000000069
(1531471700.113297) can0 1A0#0000000000000069
(1531471700.115306) can0 320#0000000000000069
(1531471700.117283) can0 324#0000000000000069
(1531471700.119239) can0 1A0#0080000000000000
(1531471700.121113) can0 5A0#0180000000000000
(1531471700.128299) can0 1A0#0000000000000069
(1531471700.128987) can0 1A0#0000000000000069
(1531471700.130947) can0 1A0#0000000000000069
(1531471700.132913) can0 1A0#0000000000000069
(1531471700.134899) can0 320#0000000000000069
(1531471700.136890) can0 324#0000000000000069
(1531471700.138801) can0 1A0#0080000000000000
(1531471700.140760) can0 5A0#0180000000000000
(1531471700.147858) can0 1A0#0000000000000069
(1531471700.148613) can0 1A0#0000000000000069
(1531471700.150570) can0 1A0#0000000000000069
(1531471700.152528) can0 1A0#0000000000000069
(1531471700.154492) can0 320#0000000000000069
(1531471700.156460) can0 324#0000000000000069
(1531471700.158424) can0 1A0#0080000000000000
(1531471700.160387) can0 5A0#0180000000000000
(1531471700.167501) can0 1A0#0000000000000069
(1531471700.168234) can0 1A0#0000000000000069
(1531471700.170242) can0 1A0#0000000000000069
(1531471700.172195) can0 1A0#0000000000000069
(1531471700.174197) can0 320#0000000000000069
(1531471700.176122) can0 324#0000000000000069
(1531471700.178129) can0 3D0#0080000000000000
(1531471700.187061) can0 1A0#0000000000000069
(1531471700.188815) can0 1A0#0000000000000069
(1531471700.190784) can0 1A0#0000000000000069
(1531471700.192752) can0 324#0000000000000069
(1531471700.194756) can0 322#0000030000000069
(1531471700.196686) can0 320#0000000000000069
(1531471700.198657) can0 5A0#0180000000000000
(1531471700.209559) can0 1A0#0000000000000069
(1531471700.211467) can0 1A0#0000000000000069
(1531471700.213381) can0 322#0000030000000069
(1531471700.215343) can0 320#0000000000000069
(1531471700.217291) can0 1A0#0080000000000000
(1531471700.226258) can0 1A0#0000000000000069
(1531471700.228103) can0 1A0#0000000000000069
(1531471700.230042) can0 1A0#0000000000000069
(1531471700.232026) can0 320#0000000000000069
(1531471700.234001) can0 324#0000000000000069
(1531471700.235930) can0 322#0000030000000069
(1531471700.237911) can0 5A0#0180000000000000
(1531471700.248797) can0 1A0#0000000000000069
(1531471700.250731) can0 1A0#0000000000000069
(1531471700.252659) can0 322#0000030000000069
(1531471700.254620) can0 320#0000000000000069
(1531471700.256561) can0 3D0#0080000000000000
(1531471700.258572) can0 5A0#0180000000000000
(1531471700.265413) can0 1A0#0000000000000069
(1531471700.266366) can0 1A0#0000000000000069
(1531471700.268330) can0 1A0#0000000000000069
(1531471700.270293) can0 322#0000030000000069
(1531471700.272242) can0 322#0000030000000069
(1531471700.274204) can0 320#0000000000000069
(1531471700.277032) can0 3D0#0080000000000000
(1531471700.278188) can0 5A0#0180000000000000
(1531471700.285035) can0 1A0#0000000000000069
(1531471700.285994) can0 1A0#0000000000000069
(1531471700.287961) can0 1A0#0000000000000069
(1531471700.289926) can0 322#0000030000000069
(1531471700.291888) can0 322#0000030000000069
(1531471700.293891) can0 320#0000000000000069
(1531471700.295809) can0 3D0#0080000000000000
(1531471700.297770) can0 320#1A00FFA900020090
(1531471700.304662) can0 1A0#0000000000000069
(1531471700.305691) can0 1A0#0000000000000069
(1531471700.307711) can0 1A0#0000000000000069
(1531471700.309810) can0 322#0000030000000069
(1531471700.311593) can0 324#0000000000000069
(1531471700.313529) can0 322#0000030000000069
(1531471700.315480) can0 3D0#0080000000000000
(1531471700.317441) can0 320#1A00FFA900030090
(1531471700.324282) can0 1A0#0000000000000069
(1531471700.325255) can0 1A0#0000000000000069
(1531471700.327266) can0 1A0#0000000000000069
(1531471700.329178) can0 324#0000000000000069
(1531471700.331134) can0 324#0000000000000069
(1531471700.333084) can0 320#0000000000000069
(1531471700.335049) can0 3D0#0080000000000000
(1531471700.337006) can0 320#1A00FFA900040090
(1531471700.343829) can0 1A0#0000000000000069
(1531471700.344863) can0 1A0#0000000000000069
(1531471700.346820) can0 1A0#0000000000000069
(1531471700.349219) can0 324#0000000000000069
(1531471700.350796) can0 324#0000000000000069
(1531471700.352740) can0 322#0000030000000069
(1531471700.354689) can0 322#0000030000000069
(1531471700.356649) can0 320#1A00FFA900050090
(1531471700.363650) can0 1A0#0000000000000069
(1531471700.365635) can0 1A0#0000000000000069
(1531471700.367550) can0 1A0#0000000000000069
(1531471700.369468) can0 322#0000030000000069
(1531471700.371413) can0 320#0000000000000069
(1531471700.373427) can0 324#0000000000000069
(1531471700.375338) can0 5A0#0180000000000000
(1531471700.377411) can0 320#1A00FFA900060090
(1531471700.383006) can0 1A0#0000000000000069
(1531471700.385139) can0 1A0#0000000000000069
(1531471700.387097) can0 1A0#0000000000000069
(1531471700.389089) can0 322#0000030000000069
(1531471700.390982) can0 320#0000000000000069
(1531471700.393011) can0 324#0000000000000069
(1531471700.394949) can0 5A0#0180000000000000
(1531471700.396871) can0 320#1A00FFA900070090
(1531471700.402574) can0 1A0#0000000000000069
(1531471700.404720) can0 1A0#0000000000000069
(1531471700.406686) can0 1A0#0000000000000069
(1531471700.408659) can0 322#0000030000000069
(1531471700.410608) can0 320#0000000000000069
(1531471700.412585) can0 324#0000000000000069
(1531471700.414548) can0 5A0#0180000000000000
(1531471700.416559) can0 320#1A00FFA900080090
(1531471700.422365) can0 1A0#0000000000000069
(1531471700.424369) can0 1A0#0000000000000069
(1531471700.426355) can0 1A0#0000000000000069
(1531471700.428318) can0 322#0000030000000069
(1531471700.430252) can0 320#0000000000000069
(1531471700.432239) can0 324#0000000000000069
(1531471700.434175) can0 5A0#0180000000000000
(1531471700.436141) can0 320#1A00FFA900090090
(1531471700.441752) can0 1A0#0000000000000069
(1531471700.444017) can0 1A0#0000000000000069
(1531471700.445954) can0 1A0#0000000000000069
(1531471700.447911) can0 322#0000030000000069
(1531471700.449875) can0 320#0000000000000069
(1531471700.451837) can0 324#0000000000000069
(1531471700.453800) can0 5A0#0180000000000000
(1531471700.456193) can0 320#1A00FFA9000A0090
(1531471700.457765) can0 520#010100008031C000
(1531471700.461363) can0 1A0#0000000000000069
(1531471700.463616) can0 1A0#0000000000000069
(1531471700.465566) can0 1A0#0000000000000069
(1531471700.467526) can0 322#0000030000000069
(1531471700.469505) can0 320#0000000000000069
(1531471700.471485) can0 324#0000000000000069
(1531471700.473473) can0 5A0#0180000000000000
(1531471700.475481) can0 320#1A00FFA9000B0090
(1531471700.481020) can0 1A0#0000000000000069
(1531471700.483264) can0 1A0#0000000000000069
(1531471700.485231) can0 1A0#0000000000000069
(1531471700.487148) can0 324#0000000000000069
(1531471700.489141) can0 320#0000000000000069
(1531471700.491093) can0 324#0000000000000069
(1531471700.493295) can0 280#490E00000E001B0E
(1531471700.493919) can0 320#1A00FFA9000C0090
(1531471700.500526) can0 1A0#0000000000000069
(1531471700.502854) can0 1A0#0000000000000069
(1531471700.504827) can0 1A0#0000000000000069
(1531471700.506777) can0 324#0000000000000069
(1531471700.508744) can0 322#0000030000000069
(1531471700.510762) can0 320#0000000000000069
(1531471700.512667) can0 280#490E00000E001B0E
(1531471700.513905) can0 320#1A00FFA9000D0090
(1531471700.520120) can0 1A0#0000000000000069
(1531471700.522507) can0 1A0#0000000000000069
(1531471700.524455) can0 1A0#0000000000000069
(1531471700.526485) can0 324#0000000000000069
(1531471700.528956) can0 322#0000030000000069
(1531471700.530450) can0 320#0000000000000069
(1531471700.532388) can0 280#490E00000E001B0E
(1531471700.533945) can0 320#1A00FFA9000E0090
(1531471700.539711) can0 1A0#0000000000000069
(1531471700.542170) can0 1A0#0000000000000069
(1531471700.544097) can0 1A0#0000000000000069
(1531471700.546052) can0 324#0000000000000069
(1531471700.547976) can0 322#0000030000000069
(1531471700.549964) can0 320#0000000000000069
(1531471700.551932) can0 280#490E00000E001B0E
(1531471700.555850) can0 320#1A00FFA9000F0090
(1531471700.557809) can0 420#85FFFF00007FFF84
(1531471700.559363) can0 1A0#0000000000000069
(1531471700.560039) can0 1A0#0000000000000069
(1531471700.561734) can0 1A0#0000000000000069
(1531471700.563712) can0 1A0#0000000000000069
(1531471700.565680) can0 324#0000000000000069
(1531471700.567652) can0 322#0000030000000069
(1531471700.569639) can0 320#0000000000000069
(1531471700.571547) can0 280#490E00000E001B0E
(1531471700.575454) can0 320#1A00FFA900000090
(1531471700.578939) can0 1A0#0000000000000069
(1531471700.581381) can0 1A0#0000000000000069
(1531471700.583386) can0 1A0#0000000000000069
(1531471700.585355) can0 324#0000000000000069
(1531471700.587323) can0 322#0000030000000069
(1531471700.589194) can0 320#0000000000000069
(1531471700.591191) can0 5A0#0180000000000000
(1531471700.595188) can0 320#1A00FFA900010090
(1531471700.598493) can0 1A0#0000000000000069
(1531471700.599232) can0 1A0#0000000000000069
(1531471700.601000) can0 1A0#0000000000000069
(1531471700.602988) can0 1A0#0000000000000069
(1531471700.604941) can0 324#0000000000000069
(1531471700.606962) can0 324#0000000000000069
(1531471700.608855) can0 320#0000000000000069
(1531471700.610851) can0 5A0#0180000000000000
(1531471700.613815) can0 320#1A00FFA900020090
(1531471700.618090) can0 1A0#0000000000000069
(1531471700.618837) can0 1A0#0000000000000069
(1531471700.620625) can0 1A0#0000000000000069
(1531471700.622590) can0 1A0#0000000000000069
(1531471700.624550) can0 320#0000000000000069
(1531471700.626516) can0 322#0000030000000069
(1531471700.628481) can0 320#0000000000000069
(1531471700.630439) can0 5A0#0180000000000000
(1531471700.633983) can0 320#1A00FFA900030090
(1531471700.637709) can0 1A0#0000000000000069
(1531471700.638419) can0 1A0#0000000000000069
(1531471700.640297) can0 1A0#0000000000000069
(1531471700.642266) can0 1A0#0000000000000069
(1531471700.644219) can0 320#0000000000000069
(1531471700.646213) can0 324#0000000000000069
(1531471700.648097) can0 1A0#0080000000000000
(1531471700.650094) can0 5A0#0180000000000000
(1531471700.653909) can0 320#1A00FFA900040090
(1531471700.655942) can0 520#504200008031C000
(1531471700.657901) can0 621#000080FF907FAC00
(1531471700.659927) can0 1A0#0000000000000069
(1531471700.661847) can0 1A0#0000000000000069
(1531471700.663809) can0 320#0000000000000069
(1531471700.665771) can0 324#0000000000000069
(1531471700.667719) can0 1A0#0080000000000000
(1531471700.669673) can0 5A0#0180000000000000
(1531471700.675618) can0 320#1A00FFA900050090
(1531471700.677086) can0 1A0#0000000000000069
(1531471700.677747) can0 1A0#0000000000000069
(1531471700.679511) can0 1A0#0000000000000069
(1531471700.681470) can0 322#0000030000000069
(1531471700.683434) can0 320#0000000000000069
(1531471700.685394) can0 324#0000000000000069
(1531471700.687390) can0 1A0#0080000000000000
(1531471700.689344) can0 5A0#0180000000000000
(1531471700.693976) can0 320#1A00FFA900060090
(1531471700.696465) can0 1A0#0000000000000069
(1531471700.697237) can0 1A0#0000000000000069
(1531471700.699194) can0 1A0#0000000000000069
(1531471700.701109) can0 1A0#0000000000000069
(1531471700.703051) can0 320#0000000000000069
(1531471700.705011) can0 324#0000000000000069
(1531471700.706980) can0 1A0#0080000000000000
(1531471700.708936) can0 5A0#0180000000000000
(1531471700.714016) can0 320#1A00FFA900070090
(1531471700.716105) can0 1A0#0000000000000069
(1531471700.716828) can0 1A0#0000000000000069
(1531471700.718823) can0 1A0#0000000000000069
(1531471700.720718) can0 1A0#0000000000000069
(1531471700.722676) can0 320#0000000000000069
(1531471700.724689) can0 324#0000000000000069
(1531471700.726641) can0 1A0#0080000000000000
(1531471700.728561) can0 5A0#0180000000000000
(1531471700.733823) can0 320#1A00FFA900080090
(1531471700.735643) can0 1A0#0000000000000069
(1531471700.736419) can0 1A0#0000000000000069
(1531471700.738386) can0 1A0#0000000000000069
(1531471700.740330) can0 1A0#0000000000000069
(1531471700.742327) can0 320#0000000000000069
(1531471700.744301) can0 324#0000000000000069
(1531471700.746263) can0 1A0#0080000000000000
(1531471700.753856) can0 320#1A00FFA900090090
(1531471700.756036) can0 420#85FFFF00007FFF84
(1531471700.758005) can0 51A#FFFFFFFFFFFFFF03
(1531471700.760017) can0 322#0000030000000069
(1531471700.761942) can0 320#0000000000000069
(1531471700.763897) can0 324#0000000000000069
(1531471700.765851) can0 1A0#0080000000000000
(1531471700.767824) can0 5A0#0180000000000000
(1531471700.775798) can0 320#1A00FFA9000A0090
(1531471700.777686) can0 1A0#0000000000000069
(1531471700.779593) can0 1A0#0000000000000069
(1531471700.781608) can0 320#0000000000000069
(1531471700.783544) can0 324#0000000000000069
(1531471700.785491) can0 1A0#0080000000000000
(1531471700.787467) can0 5A0#0180000000000000
(1531471700.795363) can0 320#1A00FFA9000B0090
(1531471700.797264) can0 1A0#0000000000000069
(1531471700.799231) can0 1A0#0000000000000069
(1531471700.801187) can0 320#0000000000000069
(1531471700.803135) can0 324#0000000000000069
(1531471700.805098) can0 1A0#0080000000000000
(1531471700.807055) can0 5A0#0180000000000000
(1531471700.813868) can0 320#1A00FFA9000C0090
(1531471700.814917) can0 1A0#0000000000000069
(1531471700.816912) can0 1A0#0000000000000069
(1531471700.818874) can0 1A0#0000000000000069
(1531471700.820869) can0 320#0000000000000069
(1531471700.822783) can0 324#0000000000000069
(1531471700.824751) can0 1A0#0080000000000000
(1531471700.826696) can0 5A0#0180000000000000
(1531471700.833879) can0 320#1A00FFA9000D0090
(1531471700.834620) can0 1A0#0000000000000069
(1531471700.836490) can0 1A0#0000000000000069
(1531471700.838447) can0 322#0000030000000069
(1531471700.840434) can0 324#0000000000000069
(1531471700.842439) can0 322#0000030000000069
(1531471700.844391) can0 320#0000000000000069
(1531471700.846333) can0 5A0#0180000000000000
(1531471700.853708) can0 1A0#0000000000000069
(1531471700.854418) can0 1A0#0000000000000069
(1531471700.856251) can0 1A0#0000000000000069
(1531471700.858094) can0 320#1A00FFA9000E0090
(1531471700.860116) can0 324#0000000000000069
(1531471700.862032) can0 320#0000000000000069
(1531471700.863993) can0 320#0000000000000069
(1531471700.865943) can0 5A0#0180000000000000
(1531471700.873480) can0 1A0#0000000000000069
(1531471700.875774) can0 1A0#0000000000000069
(1531471700.877720) can0 1A0#0000000000000069
(1531471700.879694) can0 322#0000030000000069
(1531471700.881674) can0 320#0000000000000069
(1531471700.883663) can0 324#0000000000000069
(1531471700.885654) can0 5A0#0180000000000000
(1531471700.893378) can0 1A0#0000000000000069
(1531471700.895389) can0 1A0#0000000000000069
(1531471700.897338) can0 1A0#0000000000000069
(1531471700.899332) can0 320#0000000000000069
(1531471700.901290) can0 324#0000000000000069
(1531471700.903233) can0 322#0000030000000069
(1531471700.905211) can0 5A0#0180000000000000
(1531471700.907174) can0 727#04010100020000
(1531471700.915043) can0 1A0#0000000000000069
(1531471700.916986) can0 1A0#0000000000000069
(1531471700.918958) can0 324#0000000000000069
(1531471700.920896) can0 322#0000030000000069
(1531471700.922902) can0 320#0000000000000069
(1531471700.924872) can0 5A0#0180000000000000
(1531471700.935650) can0 1A0#0000000000000069
(1531471700.937618) can0 1A0#0000000000000069
(1531471700.939622) can0 324#0000000000000069
(1531471700.941653) can0 322#0000030000000069
(1531471700.943486) can0 320#0000000000000069
(1531471700.945452) can0 280#490E00000E001B0E
(1531471700.952902) can0 1A0#0000000000000069
(1531471700.955258) can0 1A0#0000000000000069
(1531471700.957691) can0 1A0#0000000000000069
(1531471700.959285) can0 322#0000030000000069
(1531471700.961196) can0 320#0000000000000069
(1531471700.963176) can0 324#0000000000000069
(1531471700.965055) can0 5A0#0180000000000000
(1531471700.972724) can0 1A0#0000000000000069
(1531471700.974873) can0 1A0#0000000000000069
(1531471700.976894) can0 1A0#0000000000000069
(1531471700.978795) can0 320#0000000000000069
(1531471700.980755) can0 324#0000000000000069
(1531471700.982718) can0 322#0000030000000069
(1531471700.984697) can0 5A0#0180000000000000
(1531471700.995591) can0 1A0#0000000000000069
(1531471700.997486) can0 1A0#0000000000000069
(1531471700.999416) can0 322#0000030000000069
(1531471701.001472) can0 324#0000000000000069
(1531471701.003362) can0 1A0#0080000000000000
(1531471701.005311) can0 5A0#0180000000000000
(1531471701.012423) can0 1A0#0000000000000069
(1531471701.013140) can0 1A0#0000000000000069
(1531471701.015115) can0 1A0#0000000000000069
(1531471701.017078) can0 1A0#0000000000000069
(1531471701.019028) can0 322#0000030000000069
(1531471701.020988) can0 320#0000000000000069
(1531471701.022951) can0 324#0000000000000069
(1531471701.024927) can0 5A0#0180000000000000
(1531471701.033209) can0 1A0#0000000000000069
(1531471701.034786) can0 1A0#0000000000000069
(1531471701.036750) can0 1A0#0000000000000069
(1531471701.038670) can0 320#0000000000000069
(1531471701.040633) can0 324#0000000000000069
(1531471701.042595) can0 322#0000030000000069
(1531471701.044540) can0 5A0#0180000000000000
(1531471701.055405) can0 1A0#0000000000000069
(1531471701.057311) can0 1A0#0000000000000069
(1531471701.059317) can0 320#0000000000000069
(1531471701.061216) can0 324#0000000000000069
(1531471701.063170) can0 1A0#0080000000000000
(1531471701.065127) can0 5A0#0180000000000000
(1531471701.072393) can0 1A0#0000000000000069
(1531471701.073084) can0 1A0#0000000000000069
(1531471701.074986) can0 1A0#0000000000000069
(1531471701.076973) can0 322#0000030000000069
(1531471701.078883) can0 322#0000030000000069
(1531471701.080863) can0 320#0000000000000069
(1531471701.082822) can0 324#0000000000000069
(1531471701.084788) can0 5A0#0180000000000000
(1531471701.092489) can0 1A0#0000000000000069
(1531471701.094595) can0 1A0#0000000000000069
(1531471701.096548) can0 1A0#0000000000000069
(1531471701.098527) can0 320#0000000000000069
(1531471701.100489) can0 324#0000000000000069
(1531471701.102465) can0 322#0000030000000069
(1531471701.104594) can0 5A0#0180000000000000
(1531471701.106509) can0 727#04010100020000
(1531471701.114329) can0 1A0#0000000000000069
(1531471701.116237) can0 1A0#0000000000000069
(1531471701.118209) can0 324#0000000000000069
(1531471701.120155) can0 320#0000000000000069
(1531471701.122119) can0 324#0000000000000069
(1531471701.124038) can0 5A0#0180000000000000
(1531471701.134864) can0 1A0#0000000000000069
(1531471701.136803) can0 1A0#0000000000000069
(1531471701.139158) can0 320#0000000000000069
(1531471701.140740) can0 324#0000000000000069
(1531471701.142838) can0 322#0000030000000069
(1531471701.144673) can0 5A0#0180000000000000
(1531471701.155462) can0 1A0#0000000000000069
(1531471701.157409) can0 1A0#0000000000000069
(1531471701.159371) can0 320#0000000000000069
(1531471701.161318) can0 324#0000000000000069
(1531471701.163294) can0 320#0000000000000069
(1531471701.165284) can0 280#490E00000E001B0E
(1531471701.172577) can0 1A0#0000000000000069
(1531471701.173255) can0 1A0#0000000000000069
(1531471701.176182) can0 1A0#0000000000000069
(1531471701.177075) can0 1A0#0000000000000069
(1531471701.179045) can0 324#0000000000000069
(1531471701.181027) can0 320#0000000000000069
(1531471701.182930) can0 320#0000000000000069
(1531471701.184886) can0 280#490E00000E001B0E
(1531471701.192512) can0 1A0#0000000000000069
(1531471701.194720) can0 1A0#0000000000000069
(1531471701.196661) can0 1A0#0000000000000069
(1531471701.198621) can0 320#0000000000000069
(1531471701.200585) can0 322#0000030000000069
(1531471701.202552) can0 320#0000000000000069
(1531471701.204510) can0 5A0#0180000000000000
(1531471701.215345) can0 1A0#0000000000000069
(1531471701.217362) can0 1A0#0000000000000069
(1531471701.219271) can0 320#0000000000000069
(1531471701.221228) can0 322#0000030000000069
(1531471701.223274) can0 320#0000000000000069
(1531471701.225206) can0 5A0#0180000000000000
(1531471701.232467) can0 1A0#0000000000000069
(1531471701.233164) can0 1A0#0000000000000069
(1531471701.234953) can0 1A0#0000000000000069
(1531471701.236904) can0 1A0#0000000000000069
(1531471701.238903) can0 320#0000000000000069
(1531471701.240853) can0 324#0000000000000069
(1531471701.242970) can0 322#0000030000000069
(1531471701.244764) can0 5A0#0180000000000000
(1531471701.255572) can0 1A0#0000000000000069
(1531471701.257516) can0 1A0#0000000000000069
(1531471701.259564) can0 320#0000000000000069
(1531471701.261458) can0 324#0000000000000069
(1531471701.263391) can0 1A0#0080000000000000
(1531471701.265366) can0 5A0#0180000000000000
(1531471701.272648) can0 1A0#0000000000000069
(1531471701.273264) can0 1A0#0000000000000069
(1531471701.275169) can0 1A0#0000000000000069
(1531471701.277129) can0 1A0#0000000000000069
(1531471701.279086) can0 324#0000000000000069
(1531471701.281033) can0 322#0000030000000069
(1531471701.283011) can0 320#0000000000000069
(1531471701.284995) can0 280#490E00000E001B0E
(1531471701.292503) can0 1A0#0000000000000069
(1531471701.294912) can0 1A0#0000000000000069
(1531471701.296852) can0 1A0#0000000000000069
(1531471701.298838) can0 322#0000030000000069
(1531471701.300702) can0 320#0000000000000069
(1531471701.302698) can0 324#0000000000000069
(1531471701.304665) can0 5A0#0180000000000000
(1531471701.306575) can0 727#04010100020000
(1531471701.312301) can0 1A0#0000000000000069
(1531471701.314406) can0 1A0#0000000000000069
(1531471701.316376) can0 1A0#0000000000000069
(1531471701.318344) can0 320#0000000000000069
(1531471701.320331) can0 322#0000030000000069
(1531471701.322309) can0 320#0000000000000069
(1531471701.324237) can0 5A0#0180000000000000
(1531471701.335050) can0 1A0#0000000000000069
(1531471701.336992) can0 1A0#0000000000000069
(1531471701.338950) can0 322#0000030000000069
(1531471701.340915) can0 320#0000000000000069
(1531471701.342879) can0 1A0#0080000000000000
(1531471701.351986) can0 1A0#0000000000000069
(1531471701.353761) can0 1A0#0000000000000069
(1531471701.355759) can0 1A0#0000000000000069
(1531471701.357730) can0 320#0000000000000069
(1531471701.359604) can0 324#0000000000000069
(1531471701.361502) can0 322#0000030000000069
(1531471701.363495) can0 5A0#0180000000000000
(1531471701.371422) can0 1A0#0000000000000069
(1531471701.372302) can0 1A0#0000000000000069
(1531471701.374281) can0 1A0#0000000000000069
(1531471701.376306) can0 322#0000030000000069
(1531471701.378195) can0 322#0000030000000069
(1531471701.380162) can0 320#0000000000000069
(1531471701.382125) can0 3D0#0080000000000000
(1531471701.391473) can0 1A0#0000000000000069
(1531471701.393056) can0 1A0#0000000000000069
(1531471701.394935) can0 1A0#0000000000000069
(1531471701.396905) can0 322#0000030000000069
(1531471701.398838) can0 324#0000000000000069
(1531471701.400830) can0 322#0000030000000069
(1531471701.402811) can0 5A0#0180000000000000
(1531471701.413572) can0 1A0#0000000000000069
(1531471701.415510) can0 1A0#0000000000000069
(1531471701.417464) can0 322#0000030000000069
(1531471701.419405) can0 324#0000000000000069
(1531471701.421360) can0 1A0#0080000000000000
(1531471701.423362) can0 5A0#0180000000000000
(1531471701.430537) can0 1A0#0000000000000069
(1531471701.431218) can0 1A0#0000000000000069
(1531471701.433223) can0 1A0#0000000000000069
(1531471701.435108) can0 1A0#0000000000000069
(1531471701.437069) can0 320#0000000000000069
(1531471701.439046) can0 322#0000030000000069
(1531471701.441012) can0 320#0000000000000069
(1531471701.443062) can0 280#490E00000E001B0E
(1531471701.450346) can0 1A0#0000000000000069
(1531471701.452772) can0 1A0#0000000000000069
(1531471701.454810) can0 1A0#0000000000000069
(1531471701.456771) can0 324#0000000000000069
(1531471701.458760) can0 320#0000000000000069
(1531471701.460681) can0 324#0000000000000069
(1531471701.462588) can0 5A0#0180000000000000
(1531471701.470296) can0 1A0#0000000000000069
(1531471701.472404) can0 1A0#0000000000000069
(1531471701.474375) can0 1A0#0000000000000069
(1531471701.476383) can0 322#0000030000000069
(1531471701.478303) can0 320#0000000000000069
(1531471701.480261) can0 320#0000000000000069
(1531471701.482227) can0 5A0#0180000000000000
(1531471701.493084) can0 1A0#0000000000000069
(1531471701.495004) can0 1A0#0000000000000069
(1531471701.496933) can0 320#0000000000000069
(1531471701.498895) can0 322#0000030000000069
(1531471701.501310) can0 320#0000000000000069
(1531471701.502875) can0 280#490E00000E001B0E
(1531471701.506772) can0 727#04010100020000
(1531471701.510324) can0 1A0#0000000000000069
(1531471701.512719) can0 1A0#0000000000000069
(1531471701.514645) can0 1A0#0000000000000069
(1531471701.516582) can0 324#0000000000000069
(1531471701.518557) can0 324#0000000000000069
(1531471701.520469) can0 322#0000030000000069
(1531471701.522457) can0 5A0#0180000000000000
(1531471701.533276) can0 1A0#0000000000000069
(1531471701.535218) can0 1A0#0000000000000069
(1531471701.537201) can0 322#0000030000000069
(1531471701.539170) can0 324#0000000000000069
(1531471701.541163) can0 1A0#0080000000000000
(1531471701.543171) can0 5A0#0180000000000000
(1531471701.550275) can0 1A0#0000000000000069
(1531471701.550996) can0 1A0#0000000000000069
(1531471701.552864) can0 1A0#0000000000000069
(1531471701.554855) can0 1A0#0000000000000069
(1531471701.556805) can0 320#0000000000000069
(1531471701.558780) can0 320#0000000000000069
(1531471701.560717) can0 324#0000000000000069
(1531471701.562677) can0 5A0#0180000000000000
(1531471701.570569) can0 1A0#0000000000000069
(1531471701.572528) can0 1A0#0000000000000069
(1531471701.574517) can0 1A0#0000000000000069
(1531471701.576456) can0 322#0000030000000069
(1531471701.578403) can0 324#0000000000000069
(1531471701.580363) can0 322#0000030000000069
(1531471701.582320) can0 5A0#0180000000000000
(1531471701.593134) can0 1A0#0000000000000069
(1531471701.595082) can0 1A0#0000000000000069
(1531471701.597042) can0 322#0000030000000069
(1531471701.599003) can0 324#0000000000000069
(1531471701.600951) can0 1A0#0080000000000000
(1531471701.602912) can0 5A0#0180000000000000
(1531471701.610287) can0 1A0#0000000000000069
(1531471701.611002) can0 1A0#0000000000000069
(1531471701.612765) can0 1A0#0000000000000069
(1531471701.614691) can0 322#0000030000000069
(1531471701.616668) can0 320#0000000000000069
(1531471701.618614) can0 320#0000000000000069
(1531471701.620610) can0 324#0000000000000069
(1531471701.622634) can0 5A0#0180000000000000
(1531471701.630318) can0 1A0#0000000000000069
(1531471701.632358) can0 1A0#0000000000000069
(1531471701.634337) can0 1A0#0000000000000069
(1531471701.636307) can0 322#0000030000000069
(1531471701.638255) can0 320#0000000000000069
(1531471701.640217) can0 320#0000000000000069
(1531471701.642212) can0 5A0#0180000000000000
(1531471701.652996) can0 1A0#0000000000000069
(1531471701.654927) can0 1A0#0000000000000069
(1531471701.656886) can0 320#0000000000000069
(1531471701.658914) can0 322#0000030000000069
(1531471701.660860) can0 320#0000000000000069
(1531471701.662791) can0 280#490E00000E001B0E
(1531471701.670266) can0 1A0#0000000000000069
(1531471701.672602) can0 1A0#0000000000000069
(1531471701.674586) can0 1A0#0000000000000069
(1531471701.676582) can0 324#0000000000000069
(1531471701.678560) can0 324#0000000000000069
(1531471701.681439) can0 322#0000030000000069
(1531471701.682437) can0 5A0#0180000000000000
(1531471701.690276) can0 1A0#0000000000000069
(1531471701.692241) can0 1A0#0000000000000069
(1531471701.694215) can0 1A0#0000000000000069
(1531471701.696158) can0 320#0000000000000069
(1531471701.698106) can0 320#0000000000000069
(1531471701.700077) can0 320#0000000000000069
(1531471701.702041) can0 5A0#0180000000000000
(1531471701.705971) can0 727#04010100020000
(1531471701.711873) can0 1A0#0000000000000069
(1531471701.713822) can0 1A0#0000000000000069
(1531471701.715779) can0 324#0000000000000069
(1531471701.718145) can0 322#0000030000000069
(1531471701.719722) can0 320#0000000000000069
(1531471701.721700) can0 5A0#0180000000000000
(1531471701.732521) can0 1A0#0000000000000069
(1531471701.734492) can0 1A0#0000000000000069
(1531471701.736425) can0 322#0000030000000069
(1531471701.738359) can0 320#0000000000000069
(1531471701.740322) can0 1A0#0080000000000000
(1531471701.742286) can0 5A0#0180000000000000
(1531471701.749310) can0 1A0#0000000000000069
(1531471701.750142) can0 1A0#0000000000000069
(1531471701.752089) can0 1A0#0000000000000069
(1531471701.754083) can0 322#0000030000000069
(1531471701.756030) can0 320#0000000000000069
(1531471701.757980) can0 320#0000000000000069
(1531471701.759968) can0 1A0#0080000000000000
(1531471701.768917) can0 1A0#0000000000000069
(1531471701.770735) can0 1A0#0000000000000069
(1531471701.772680) can0 1A0#0000000000000069
(1531471701.774647) can0 320#0000000000000069
(1531471701.776651) can0 324#0000000000000069
(1531471701.778572) can0 324#0000000000000069
(1531471701.780532) can0 5A0#0180000000000000
(1531471701.791451) can0 1A0#0000000000000069
(1531471701.793393) can0 1A0#0000000000000069
(1531471701.795306) can0 320#0000000000000069
(1531471701.797275) can0 324#0000000000000069
(1531471701.799156) can0 324#0000000000000069
(1531471701.801138) can0 5A0#0180000000000000
(1531471701.811979) can0 322#0000030000000069
(1531471701.813914) can0 324#0200000000000069
(1531471701.815879) can0 320#0039000000000069
(1531471701.817837) can0 324#0200000000000069
(1531471701.819783) can0 5A0#0180000000000000
(1531471701.830712) can0 322#0000030000000069
(1531471701.832599) can0 324#0200000000000069
(1531471701.834506) can0 320#0044000000000069
(1531471701.836482) can0 324#0200000000000069
(1531471701.838447) can0 320#1A00FFFF01880190
(1531471701.849353) can0 322#0000030000000069
(1531471701.851196) can0 324#0200000000000069
(1531471701.853133) can0 324#0200000000000069
(1531471701.855134) can0 322#0000030000000069
(1531471701.857096) can0 5A0#0180000000000000
(1531471701.867934) can0 322#0000030000000069
(1531471701.869850) can0 324#0200000000000069
(1531471701.871810) can0 320#0048000000000069
(1531471701.873773) can0 324#0200000000000069
(1531471701.875769) can0 5A0#0180000000000000
(1531471701.886552) can0 322#0000030000000069
(1531471701.888492) can0 324#0200000000000069
(1531471701.890454) can0 320#004C000000000069
(1531471701.892424) can0 324#0200000000000069
(1531471701.894379) can0 5A0#0180000000000000
(1531471701.896346) can0 320#1A00FFA5044B0590
(1531471701.904229) can0 322#0000030000000069
(1531471701.906238) can0 324#0200000000000069
(1531471701.908142) can0 320#0053000000000069
(1531471701.910069) can0 324#0200000000000069
(1531471701.912015) can0 320#0053000000000069
(1531471701.913960) can0 320#1A00FFF905CC0690
(1531471701.920740) can0 322#0000030000000069
(1531471701.921856) can0 324#0200000000000069
(1531471701.923804) can0 320#0056000000000069
(1531471701.925958) can0 322#0000030000000069
(1531471701.927761) can0 322#0000030000000069
(1531471701.929693) can0 1A0#0080000000000000
(1531471701.931669) can0 280#490E80160E001B0E
(1531471701.935624) can0 320#1A00FFA1088D0990
(1531471701.939332) can0 322#0000030000000069
(1531471701.941515) can0 324#0200000000000069
(1531471701.943479) can0 320#0058000000000069
(1531471701.945411) can0 320#0058000000000069
(1531471701.947370) can0 324#0200000000000069
(1531471701.949336) can0 5A0#0180000000000000
(1531471701.955233) can0 320#1A00FFA1088E0990
(1531471701.957229) can0 420#85FFFF00007FFF84
(1531471701.957979) can0 322#0000030000000069
(1531471701.959177) can0 324#0200000000000069
(1531471701.961157) can0 320#0056000000000069
(1531471701.963052) can0 324#0200000000000069
(1531471701.965043) can0 324#0200000000000069
(1531471701.966969) can0 1A0#0080000000000000
(1531471701.968965) can0 5A0#0180060000000000
(1531471701.974110) can0 320#1A00FFA1088F0990
(1531471701.976428) can0 322#0000030000000069
(1531471701.978773) can0 324#0200000000000069
(1531471701.980718) can0 320#0057000000000069
(1531471701.982681) can0 322#0000030000000069
(1531471701.984658) can0 320#0057000000000069
(1531471701.986622) can0 5A0#0180000000000000
(1531471701.993930) can0 320#1A00FFA108800990
(1531471701.996423) can0 322#0000030000000069
(1531471701.998395) can0 324#0200000000000069
(1531471702.000364) can0 322#0000030000000069
(1531471702.002308) can0 320#0055000000000069
(1531471702.004287) can0 3D0#0080000000000000
(1531471702.013486) can0 322#0000030000000069
(1531471702.015065) can0 324#0200000000000069
(1531471702.017027) can0 320#1A00FF4D07010890
(1531471702.019020) can0 324#0200000000000069
(1531471702.020984) can0 322#0000030000000069
(1531471702.022947) can0 320#0055000000000069
(1531471702.024905) can0 5A0#0180050000000000
(1531471702.032566) can0 322#0000030000000069
(1531471702.034832) can0 324#0200000000000069
(1531471702.036752) can0 320#0056000000000069
(1531471702.038670) can0 320#0056000000000069
(1531471702.040634) can0 324#0200000000000069
(1531471702.042680) can0 5A0#0180000000000000
(1531471702.051213) can0 322#0000030000000069
(1531471702.053371) can0 324#0200000000000069
(1531471702.055357) can0 320#0057000000000069
(1531471702.057321) can0 320#0057000000000069
(1531471702.059356) can0 322#0000030000000069
(1531471702.061228) can0 520#010100008031C000
(1531471702.069923) can0 322#0000030000000069
(1531471702.072004) can0 324#0200000000000069
(1531471702.073982) can0 320#0058000000000069
(1531471702.075965) can0 320#0058000000000069
(1531471702.077884) can0 322#0000030000000069
(1531471702.080678) can0 320#0058000000000069
(1531471702.088673) can0 322#0000030000000069
(1531471702.090655) can0 324#0200000000000069
(1531471702.092614) can0 320#0056000000000069
(1531471702.094590) can0 324#0200000000000069
(1531471702.096534) can0 324#0200000000000069
(1531471702.098527) can0 320#0056000000000069
(1531471702.106407) can0 727#04010100020000
(1531471702.107486) can0 322#0000030000000069
(1531471702.108342) can0 324#0200000000000069
(1531471702.110266) can0 320#0054000000000069
(1531471702.112226) can0 320#0054000000000069
(1531471702.114262) can0 320#0054000000000069
(1531471702.117011) can0 324#0200000000000069
(1531471702.118146) can0 5A0#0180000000000000
(1531471702.128942) can0 322#0000030000000069
(1531471702.130887) can0 324#0200000000000069
(1531471702.132826) can0 322#0000030000000069
(1531471702.134870) can0 320#0054000000000069
(1531471702.136834) can0 280#490E4E150E001B0E
(1531471702.144570) can0 322#0000030000000069
(1531471702.146681) can0 324#0200000000000069
(1531471702.148631) can0 320#0051000000000069
(1531471702.150599) can0 320#0051000000000069
(1531471702.152554) can0 324#0200000000000069
(1531471702.154508) can0 5A0#0180000000000000
(1531471702.156408) can0 320#1A00FF4D07080890
(1531471702.164256) can0 322#0000030000000069
(1531471702.166206) can0 324#0200000000000069
(1531471702.168289) can0 324#0200000000000069
(1531471702.170208) can0 322#0000030000000069
(1531471702.172234) can0 1A0#0080000000000000
(1531471702.174169) can0 5A0#0180050000000000
(1531471702.176105) can0 320#1A00FF4D07090890
(1531471702.181596) can0 322#0000030000000069
(1531471702.184041) can0 324#0200000000000069
(1531471702.185839) can0 320#0050000000000069
(1531471702.187798) can0 322#0000030000000069
(1531471702.189785) can0 320#0050000000000069
(1531471702.191722) can0 5A0#0180000000000000
(1531471702.195664) can0 320#1A00FF4D070A0890
(1531471702.201547) can0 322#0000030000000069
(1531471702.203497) can0 324#0200000000000069
(1531471702.205461) can0 322#0000030000000069
(1531471702.207420) can0 324#0200000000000069
(1531471702.209502) can0 1A0#0080000000000000
(1531471702.215290) can0 320#1A00FFF905CB0690
(1531471702.218549) can0 322#0000030000000069
(1531471702.219315) can0 324#0200000000000069
(1531471702.221157) can0 320#004D000000000069
(1531471702.223235) can0 324#0200000000000069
(1531471702.225652) can0 324#0200000000000069
(1531471702.227232) can0 322#0000030000000069
(1531471702.229130) can0 5A0#0180000000000000
(1531471702.234009) can0 320#1A00FFF905CC0690
(1531471702.238881) can0 322#0000030000000069
(1531471702.240814) can0 324#0200000000000069
(1531471702.242748) can0 322#0000030000000069
(1531471702.244699) can0 320#004E000000000069
(1531471702.246658) can0 3D0#0080000000000000
(1531471702.253780) can0 320#1A00FFF905CD0690
(1531471702.254525) can0 51A#FDFFFFFFFFFFFF03
(1531471702.256486) can0 520#504200008031C000
(1531471702.258575) can0 621#000080FF907FAD00
(1531471702.260427) can0 320#0049000000000069
(1531471702.262370) can0 320#0049000000000069
(1531471702.264361) can0 324#0200000000000069
(1531471702.266329) can0 5A0#0180000000000000
(1531471702.273660) can0 320#1A00FFA5044E0590
(1531471702.276221) can0 322#0000030000000069
(1531471702.278081) can0 324#0200000000000069
(1531471702.280224) can0 320#0049000000000069
(1531471702.282150) can0 322#0000030000000069
(1531471702.284032) can0 5A0#0180000000000000
(1531471702.292784) can0 322#0000030000000069
(1531471702.294742) can0 324#0200000000000069
(1531471702.296709) can0 320#0047000000000069
(1531471702.299084) can0 322#0000030000000069
(1531471702.300680) can0 320#0047000000000069
(1531471702.302680) can0 3D0#0080000000000000
(1531471702.306533) can0 727#04010100020000
(1531471702.311559) can0 322#0000030000000069
(1531471702.312422) can0 324#0200000000000069
(1531471702.314384) can0 320#0047000000000069
(1531471702.316346) can0 320#0047000000000069
(1531471702.318310) can0 320#0047000000000069
(1531471702.320273) can0 320#0047000000000069
(1531471702.322271) can0 5A0#0180000000000000
(1531471702.333054) can0 322#0000030000000069
(1531471702.335328) can0 324#0200000000000069
(1531471702.337017) can0 322#0000030000000069
(1531471702.338972) can0 322#0000030000000069
(1531471702.340954) can0 320#0049000000000069
(1531471702.349704) can0 322#0000030000000069
(1531471702.351693) can0 324#0200000000000069
(1531471702.353648) can0 320#004A000000000069
(1531471702.355600) can0 320#004A000000000069
(1531471702.357549) can0 320#1A00FFA504420590
(1531471702.359557) can0 320#004A000000000069
(1531471702.368459) can0 322#0000030000000069
(1531471702.370322) can0 324#0200000000000069
(1531471702.372318) can0 320#004A000000000069
(1531471702.374286) can0 324#0200000000000069
(1531471702.376508) can0 322#0000030000000069
(1531471702.378173) can0 3D0#0080000000000000
(1531471702.387063) can0 322#0000030000000069
(1531471702.388955) can0 324#0200000000000069
(1531471702.390930) can0 320#0049000000000069
(1531471702.392897) can0 324#0200000000000069
(1531471702.394893) can0 322#0000030000000069
(1531471702.396906) can0 320#0049000000000069
(1531471702.405692) can0 322#0000030000000069
(1531471702.407679) can0 324#0200000000000069
(1531471702.409627) can0 320#0049000000000069
(1531471702.411528) can0 320#0049000000000069
(1531471702.413550) can0 324#0200000000000069
(1531471702.415479) can0 5A0#0180000000000000
(1531471702.417429) can0 320#1A00FFA504450590
(1531471702.424159) can0 322#0000030000000069
(1531471702.425417) can0 324#0200000000000069
(1531471702.427294) can0 320#0049000000000069
(1531471702.429230) can0 324#0200000000000069
(1531471702.431188) can0 322#0000030000000069
(1531471702.433130) can0 320#0049000000000069
(1531471702.435077) can0 280#490EB10E0E001B0E
(1531471702.437055) can0 320#1A00FFA504460590
(1531471702.442798) can0 322#0000030000000069
(1531471702.444927) can0 324#0200000000000069
(1531471702.446885) can0 320#0049000000000069
(1531471702.448886) can0 322#0000030000000069
(1531471702.450794) can0 320#0049000000000069
(1531471702.452736) can0 5A0#0180000000000000
(1531471702.453812) can0 320#1A00FFA504470590
(1531471702.454696) can0 520#338700008031C000
(1531471702.456674) can0 621#000080FF907FAD00
(1531471702.462682) can0 322#0000030000000069
(1531471702.464709) can0 324#0200000000000069
(1531471702.466549) can0 324#0200000000000069
(1531471702.468496) can0 320#004A000000000069
(1531471702.470431) can0 1A0#0080000000000000
(1531471702.472433) can0 5A0#0180040000000000
(1531471702.473860) can0 320#1A00FFA504480590
(1531471702.479782) can0 322#0000030000000069
(1531471702.482232) can0 324#0200000000000069
(1531471702.484144) can0 320#004B000000000069
(1531471702.486105) can0 324#0200000000000069
(1531471702.488081) can0 320#004B000000000069
(1531471702.490045) can0 5A0#0180000000000000
(1531471702.493784) can0 320#1A00FFF905C90690
(1531471702.499866) can0 322#0000030000000069
(1531471702.501819) can0 324#0200000000000069
(1531471702.503782) can0 322#0000030000000069
(1531471702.505743) can0 320#004E000000000069
(1531471702.507700) can0 3D0#0080000000000000
(1531471702.515598) can0 320#1A00FFF905CA0690
(1531471702.516872) can0 322#0000030000000069
(1531471702.517585) can0 324#0200000000000069
(1531471702.519500) can0 320#0050000000000069
(1531471702.521477) can0 320#0050000000000069
(1531471702.523454) can0 324#0200000000000069
(1531471702.525419) can0 322#0000030000000069
(1531471702.527303) can0 5A0#0180000000000000
(1531471702.535216) can0 320#1A00FF4D070B0890
(1531471702.537145) can0 322#0000030000000069
(1531471702.539105) can0 324#0200000000000069
(1531471702.541067) can0 324#0200000000000069
(1531471702.543099) can0 322#0000030000000069
(1531471702.544998) can0 320#0050000000000069
(1531471702.553811) can0 320#1A00FF4D070C0890
(1531471702.555933) can0 322#0000030000000069
(1531471702.557737) can0 324#0200000000000069
(1531471702.559769) can0 324#0200000000000069
(1531471702.561665) can0 320#004E000000000069
(1531471702.563638) can0 322#0000030000000069
(1531471702.572641) can0 322#0000030000000069
(1531471702.574439) can0 324#0200000000000069
(1531471702.576414) can0 320#004C000000000069
(1531471702.578376) can0 322#0000030000000069
(1531471702.580305) can0 320#004C000000000069
(1531471702.582329) can0 3D0#0080000000000000
(1531471702.591502) can0 322#0000030000000069
(1531471702.593114) can0 324#0200000000000069
(1531471702.595087) can0 320#004A000000000069
(1531471702.597121) can0 322#0000030000000069
(1531471702.598962) can0 324#0200000000000069
(1531471702.600940) can0 1A0#0080000000000000
(1531471702.602885) can0 5A0#0180040000000000
(1531471702.610309) can0 322#0000030000000069
(1531471702.612700) can0 324#0200000000000069
(1531471702.614669) can0 320#004B000000000069
(1531471702.616616) can0 322#0000030000000069
(1531471702.618580) can0 324#0200000000000069
(1531471702.620563) can0 5A0#0180000000000000
(1531471702.631365) can0 322#0000030000000069
(1531471702.633300) can0 324#0200000000000069
(1531471702.635316) can0 322#0000030000000069
(1531471702.637242) can0 320#004A000000000069
(1531471702.639189) can0 5A0#0180000000000000
(1531471702.647978) can0 322#0000030000000069
(1531471702.650952) can0 324#0200000000000069
(1531471702.652051) can0 320#004B000000000069
(1531471702.653956) can0 322#0000030000000069
(1531471702.655922) can0 320#004B000000000069
(1531471702.659268) can0 320#004B000000000069
(1531471702.668663) can0 322#0000030000000069
(1531471702.670610) can0 324#0200000000000069
(1531471702.672552) can0 322#0000030000000069
(1531471702.674515) can0 324#0200000000000069
(1531471702.676537) can0 5A0#0180000000000000
(1531471702.687318) can0 322#0000030000000069
(1531471702.689250) can0 324#0200000000000069
(1531471702.691236) can0 322#0000030000000069
(1531471702.693176) can0 320#004C000000000069
(1531471702.695543) can0 5A0#0180000000000000
(1531471702.697149) can0 320#1A00FFF905C30690
(1531471702.704985) can0 322#0000030000000069
(1531471702.706991) can0 324#0200000000000069
(1531471702.708911) can0 324#0200000000000069
(1531471702.710892) can0 320#004D000000000069
(1531471702.712825) can0 1A0#0080000000000000
(1531471702.714789) can0 5A0#0180040000000000
(1531471702.716750) can0 320#1A00FFF905C40690
(1531471702.722004) can0 322#0000030000000069
(1531471702.722742) can0 324#0200000000000069
(1531471702.724620) can0 320#004C000000000069
(1531471702.726585) can0 324#0200000000000069
(1531471702.728505) can0 324#0200000000000069
(1531471702.730870) can0 322#0000030000000069
(1531471702.732451) can0 5A0#0180000000000000
(1531471702.733910) can0 320#1A00FFF905C50690
(1531471702.742348) can0 322#0000030000000069
(1531471702.744218) can0 324#0200000000000069
(1531471702.746170) can0 324#0200000000000069
(1531471702.748128) can0 320#004C000000000069
(1531471702.750090) can0 3D0#0080000000000000
(1531471702.753883) can0 320#1A00FFF905C60690
(1531471702.755973) can0 420#85FFFF00007FFF84
(1531471702.757980) can0 51A#FEFFFFFFFFFFFF03
(1531471702.759167) can0 322#0000030000000069
(1531471702.759946) can0 324#0200000000000069
(1531471702.761958) can0 320#004D000000000069
(1531471702.763876) can0 320#004D000000000069
(1531471702.766742) can0 320#004D000000000069
(1531471702.767777) can0 324#0200000000000069
(1531471702.769746) can0 5A0#0180000000000000
(1531471702.775808) can0 320#1A00FFF905C70690
(1531471702.779545) can0 322#0000030000000069
(1531471702.781495) can0 324#0200000000000069
(1531471702.783459) can0 324#0200000000000069
(1531471702.785419) can0 322#0000030000000069
(1531471702.787380) can0 320#004E000000000069
(1531471702.795253) can0 320#1A00FFF905C80690
(1531471702.796147) can0 322#0000030000000069
(1531471702.797193) can0 324#0200000000000069
(1531471702.799158) can0 320#004F000000000069
(1531471702.801120) can0 322#0000030000000069
(1531471702.803481) can0 322#0000030000000069
(1531471702.805075) can0 320#004F000000000069
(1531471702.807039) can0 280#490E4E120E001B0E
(1531471702.813790) can0 320#1A00FFF905C90690
(1531471702.814692) can0 322#0000030000000069
(1531471702.816874) can0 324#0200000000000069
(1531471702.818837) can0 320#004E000000000069
(1531471702.820751) can0 320#004E000000000069
(1531471702.822695) can0 324#0200000000000069
(1531471702.824710) can0 5A0#0180000000000000
(1531471702.835488) can0 322#0000030000000069
(1531471702.837416) can0 324#0200000000000069
(1531471702.839417) can0 324#0200000000000069
(1531471702.841427) can0 322#0000030000000069
(1531471702.843421) can0 320#004D000000000069
(1531471702.852204) can0 322#0000030000000069
(1531471702.854115) can0 324#0200000000000069
(1531471702.856060) can0 320#004D000000000069
(1531471702.858025) can0 322#0000030000000069
(1531471702.860030) can0 320#004D000000000069
(1531471702.861964) can0 3D0#0080000000000000
(1531471702.871122) can0 322#0000030000000069
(1531471702.872895) can0 324#0200000000000069
(1531471702.876264) can0 320#004C000000000069
(1531471702.876695) can0 324#0200000000000069
(1531471702.878691) can0 320#004C000000000069
(1531471702.880699) can0 3D0#0080000000000000
(1531471702.889765) can0 322#0000030000000069
(1531471702.891434) can0 324#0200000000000069
(1531471702.893404) can0 320#004D000000000069
(1531471702.895332) can0 322#0000030000000069
(1531471702.897293) can0 320#004D000000000069
(1531471702.899253) can0 1A0#0080000000000000
(1531471702.901214) can0 5A0#0180040000000000
(1531471702.904712) can0 727#04010100020000
(1531471702.908722) can0 322#0000030000000069
(1531471702.912030) can0 324#0200000000000069
(1531471702.913014) can0 320#004C000000000069
(1531471702.914978) can0 322#0000030000000069
(1531471702.916983) can0 320#004C000000000069
(1531471702.918880) can0 5A0#0180000000000000
(1531471702.929748) can0 322#0000030000000069
(1531471702.931621) can0 324#0200000000000069
(1531471702.933593) can0 322#0000030000000069
(1531471702.935570) can0 324#0200000000000069
(1531471702.937542) can0 320#1A00FFF905CF0690
(1531471702.948356) can0 322#0000030000000069
(1531471702.950307) can0 324#0200000000000069
(1531471702.952297) can0 322#0000030000000069
(1531471702.954208) can0 320#004D000000000069
(1531471702.956163) can0 5A0#0180000000000000
(1531471702.958122) can0 420#85FFFF00007FFF84
(1531471702.966003) can0 322#0000030000000069
(1531471702.967949) can0 324#0200000000000069
(1531471702.969908) can0 324#0200000000000069
(1531471702.971860) can0 324#0200000000000069
(1531471702.973819) can0 1A0#0080000000000000
(1531471702.974853) can0 5A0#0180050000000000
(1531471702.985721) can0 322#0000030000000069
(1531471702.987615) can0 324#0200000000000069
(1531471702.989544) can0 324#0200000000000069
(1531471702.991520) can0 322#0000030000000069
(1531471702.993466) can0 5A0#0180000000000000
(1531471702.995392) can0 320#1A00FF4D07020890
(1531471703.003292) can0 322#0000030000000069
(1531471703.005237) can0 324#0200000000000069
(1531471703.007208) can0 322#0000030000000069
(1531471703.009220) can0 320#0051000000000069
(1531471703.011125) can0 3D0#0080000000000000
(1531471703.013879) can0 320#1A00FF4D07030890
(1531471703.021140) can0 322#0000030000000069
(1531471703.021147) can0 324#0200000000000069
(1531471703.022947) can0 320#0052000000000069
(1531471703.024856) can0 320#0052000000000069
(1531471703.026853) can0 320#0052000000000069
(1531471703.028788) can0 324#0200000000000069
(1531471703.030739) can0 5A0#0180000000000000
(1531471703.033772) can0 320#1A00FF4D07040890
(1531471703.040661) can0 322#0000030000000069
(1531471703.042542) can0 324#0200000000000069
(1531471703.044468) can0 324#0200000000000069
(1531471703.046476) can0 322#0000030000000069
(1531471703.048418) can0 320#0056000000000069
(1531471703.053690) can0 320#1A00FFA108850990
(1531471703.054442) can0 520#504200008031C000
(1531471703.060041) can0 621#000080FF907FAC00
(1531471703.060048) can0 322#0000030000000069
(1531471703.060157) can0 324#0200000000000069
(1531471703.060161) can0 320#0057000000000069
(1531471703.062140) can0 320#0057000000000069
(1531471703.064166) can0 322#0000030000000069
(1531471703.066037) can0 320#0057000000000069
(1531471703.067999) can0 280#490E6C170E001B0E
(1531471703.073918) can0 320#1A00FFA108860990
(1531471703.075821) can0 322#0000030000000069
(1531471703.077863) can0 324#0200000000000069
(1531471703.079811) can0 320#005A000000000069
(1531471703.081772) can0 320#005A000000000069
(1531471703.083726) can0 324#0200000000000069
(1531471703.085682) can0 5A0#0180000000000000
(1531471703.096536) can0 320#1A00FFA108870990
(1531471703.098460) can0 322#0000030000000069
(1531471703.100426) can0 322#0000030000000069
(1531471703.102446) can0 324#0200000000000069
(1531471703.104423) can0 5A0#0180000000000000
(1531471703.106325) can0 727#04010100020000
(1531471703.114209) can0 322#0000030000000069
(1531471703.116124) can0 324#0200000000000069
(1531471703.118090) can0 322#0000030000000069
(1531471703.120052) can0 322#0000030000000069
(1531471703.122011) can0 320#005C000000000069
(1531471703.123978) can0 280#490E6C1A0E001B0E
(1531471703.131661) can0 322#0000030000000069
(1531471703.134205) can0 324#0200000000000069
(1531471703.135772) can0 320#005D000000000069
(1531471703.137754) can0 324#0200000000000069
(1531471703.139664) can0 322#0000030000000069
(1531471703.141652) can0 320#005D000000000069
(1531471703.150444) can0 322#0000030000000069
(1531471703.152442) can0 324#0200000000000069
(1531471703.154427) can0 320#0061000000000069
(1531471703.156467) can0 320#0061000000000069
(1531471703.158372) can0 322#0000030000000069
(1531471703.160344) can0 320#0061000000000069
(1531471703.170045) can0 322#0000030000000069
(1531471703.171086) can0 324#0200000000000069
(1531471703.173051) can0 320#0065000000000069
(1531471703.175113) can0 324#0200000000000069
(1531471703.177032) can0 322#0000030000000069
(1531471703.178958) can0 1A0#0080000000000000
(1531471703.180889) can0 5A0#0180080000000000
(1531471703.188213) can0 322#0000030000000069
(1531471703.188942) can0 324#0200000000000069
(1531471703.190703) can0 320#0069000000000069
(1531471703.192734) can0 324#0200000000000069
(1531471703.194631) can0 324#0200000000000069
(1531471703.196575) can0 322#0000030000000069
(1531471703.198582) can0 5A0#0180000000000000
(1531471703.209500) can0 322#0000030000000069
(1531471703.211349) can0 324#0200000000000069
(1531471703.213277) can0 320#006A000000000069
(1531471703.215253) can0 322#0000030000000069
(1531471703.217201) can0 320#1A00FF490B4D0C90
(1531471703.228106) can0 322#0000030000000069
(1531471703.229995) can0 324#0200000000000069
(1531471703.231913) can0 320#006B000000000069
(1531471703.233888) can0 322#0000030000000069
(1531471703.235912) can0 5A0#0180000000000000
(1531471703.246686) can0 322#0000030000000069
(1531471703.248656) can0 324#0200000000000069
(1531471703.250567) can0 320#006F000000000069
(1531471703.252515) can0 324#0200000000000069
(1531471703.254489) can0 5A0#0180000000000000
(1531471703.256453) can0 320#1A00FF490B4F0C90
(1531471703.258470) can0 621#000080FF907FAC00
(1531471703.264323) can0 322#0000030000000069
(1531471703.266265) can0 324#0200000000000069
(1531471703.268230) can0 324#0200000000000069
(1531471703.270193) can0 322#0000030000000069
(1531471703.272153) can0 320#0070000000000069
(1531471703.273869) can0 320#1A00FF9B0CC00D90
(1531471703.280973) can0 322#0000030000000069
(1531471703.281994) can0 324#0200000000000069
(1531471703.284181) can0 320#0076000000000069
(1531471703.285930) can0 322#0000030000000069
(1531471703.287895) can0 324#0200000000000069
(1531471703.289796) can0 320#0076000000000069
(1531471703.291906) can0 280#490E092A0E001B0E
(1531471703.295746) can0 320#1A00FFA900010090
(1531471703.299508) can0 322#0000030000000069
(1531471703.301571) can0 324#0200000000000069
(1531471703.303541) can0 320#007D000000000069
(1531471703.305470) can0 320#007D000000000069
(1531471703.307466) can0 324#0200000000000069
(1531471703.309451) can0 727#04010100020000
(1531471703.315324) can0 320#1A00FF430F821090
(1531471703.318074) can0 322#0000030000000069
(1531471703.319209) can0 324#0200000000000069
(1531471703.321170) can0 320#0087000000000069
(1531471703.323147) can0 322#0000030000000069
(1531471703.325175) can0 322#0000030000000069
(1531471703.327067) can0 320#0087000000000069
(1531471703.329055) can0 5A0#01800C0000000000
(1531471703.333852) can0 320#1A00FF9710C31190
(1531471703.336633) can0 322#0000030000000069
(1531471703.338964) can0 324#0200000000000069
(1531471703.340950) can0 320#008A000000000069
(1531471703.342893) can0 322#0000030000000069
(1531471703.344813) can0 320#008A000000000069
(1531471703.346733) can0 5A0#0180000000000000
(1531471703.353872) can0 320#1A00FF9710C41190
(1531471703.354611) can0 420#85FFFF00007FFF84
(1531471703.356561) can0 5D2#0000000000575657
(1531471703.358595) can0 322#0000030000000069
(1531471703.360558) can0 324#0200000000000069
(1531471703.362452) can0 324#0200000000000069
(1531471703.364416) can0 1A0#0080000000000000
(1531471703.366375) can0 5A0#01800D0000000000
(1531471703.373708) can0 320#1A00FFEB11451390
(1531471703.374460) can0 322#0000030000000069
(1531471703.376231) can0 324#0200000000000069
(1531471703.378123) can0 324#0200000000000069
(1531471703.380096) can0 322#0000030000000069
(1531471703.382123) can0 320#008D000000000069
(1531471703.384042) can0 5A0#0180000000000000
(1531471703.394871) can0 322#0000030000000069
(1531471703.396803) can0 324#0200000000000069
(1531471703.398798) can0 320#008E000000000069
(1531471703.400691) can0 324#0200000000000069
(1531471703.402652) can0 5A0#0180000000000000
(1531471703.411426) can0 322#0000030000000069
(1531471703.413555) can0 324#0200000000000069
(1531471703.415454) can0 320#008E000000000069
(1531471703.417379) can0 322#0000030000000069
(1531471703.419374) can0 322#0000030000000069
(1531471703.421339) can0 320#008E000000000069
(1531471703.430253) can0 322#0000030000000069
(1531471703.432121) can0 324#0200000000000069
(1531471703.434068) can0 320#008D000000000069
(1531471703.436059) can0 324#0200000000000069
(1531471703.438044) can0 320#008D000000000069
(1531471703.439976) can0 3D0#0080000000000000
(1531471703.449096) can0 322#0000030000000069
(1531471703.450753) can0 324#0200000000000069
(1531471703.452699) can0 320#008E000000000069
(1531471703.454661) can0 322#0000030000000069
(1531471703.456660) can0 320#008E000000000069
(1531471703.458653) can0 3D0#0080000000000000
(1531471703.467900) can0 322#0000030000000069
(1531471703.469401) can0 324#0200000000000069
(1531471703.471348) can0 320#008E000000000069
(1531471703.473325) can0 322#0000030000000069
(1531471703.475301) can0 320#008E000000000069
(1531471703.477273) can0 320#1A00FFEB114A1390
(1531471703.486565) can0 322#0000030000000069
(1531471703.488072) can0 324#0200000000000069
(1531471703.490093) can0 320#008E000000000069
(1531471703.492174) can0 322#0000030000000069
(1531471703.493970) can0 320#008E000000000069
(1531471703.495924) can0 3D0#0080000000000000
(1531471703.497881) can0 5A0#01800D0000000000
(1531471703.504847) can0 727#04010100020000
(1531471703.505725) can0 322#0000030000000069
(1531471703.507704) can0 324#0200000000000069
(1531471703.509697) can0 324#0200000000000069
(1531471703.511613) can0 324#0200000000000069
(1531471703.513570) can0 324#0200000000000069
(1531471703.515519) can0 5A0#0180000000000000
(1531471703.517511) can0 320#1A00FFEB114C1390
(1531471703.525364) can0 322#0000030000000069
(1531471703.527374) can0 324#0200000000000069
(1531471703.529350) can0 322#0000030000000069
(1531471703.531335) can0 322#0000030000000069
(1531471703.533212) can0 3D0#0080000000000000
(1531471703.535219) can0 320#1A00FFEB114D1390
(1531471703.542196) can0 322#0000030000000069
(1531471703.542986) can0 324#0200000000000069
(1531471703.544965) can0 320#008E000000000069
(1531471703.547041) can0 320#008E000000000069
(1531471703.549059) can0 320#008E000000000069
(1531471703.551045) can0 324#0200000000000069
(1531471703.552935) can0 5A0#0180000000000000
(1531471703.554036) can0 320#1A00FFEB114E1390
(1531471703.554896) can0 420#85FFFF00007FFF84
(1531471703.556837) can0 5D2#015A5A5A36525A41
(1531471703.562726) can0 322#0000030000000069
(1531471703.564617) can0 324#0200000000000069
(1531471703.566559) can0 324#0200000000000069
(1531471703.568524) can0 322#0000030000000069
(1531471703.570531) can0 320#008D000000000069
(1531471703.573747) can0 320#1A00FFA9000F0090
(1531471703.579339) can0 322#0000030000000069
(1531471703.580273) can0 324#0200000000000069
(1531471703.582236) can0 320#008E000000000069
(1531471703.584199) can0 320#008E000000000069
(1531471703.586176) can0 320#008E000000000069
(1531471703.588123) can0 324#0200000000000069
(1531471703.590095) can0 5A0#0180000000000000
(1531471703.595026) can0 320#1A00FFEB11401390
(1531471703.597921) can0 322#0000030000000069
(1531471703.598937) can0 324#0200000000000069
(1531471703.601270) can0 320#008E000000000069
(1531471703.602896) can0 320#008E000000000069
(1531471703.604863) can0 320#008E000000000069
(1531471703.606827) can0 320#008E000000000069
(1531471703.608841) can0 280#490E76380E001B0E
(1531471703.613957) can0 320#1A00FFEB11411390
(1531471703.616494) can0 322#0000030000000069
(1531471703.618545) can0 324#0200000000000069
(1531471703.620573) can0 320#008E000000000069
(1531471703.622498) can0 320#008E000000000069
(1531471703.624475) can0 324#0200000000000069
(1531471703.626501) can0 5A0#0180000000000000
(1531471703.633768) can0 320#1A00FFEB11421390
(1531471703.637091) can0 322#0000030000000069
(1531471703.638207) can0 324#0200000000000069
(1531471703.640179) can0 322#0000030000000069
(1531471703.642329) can0 322#0000030000000069
(1531471703.644096) can0 320#008E000000000069
(1531471703.646046) can0 5A0#01800D0000000000
(1531471703.653659) can0 322#0000030000000069
(1531471703.655817) can0 320#1A00FFEB11431390
(1531471703.657803) can0 324#0200000000000069
(1531471703.659847) can0 324#0200000000000069
(1531471703.661796) can0 322#0000030000000069
(1531471703.663682) can0 520#010100008031C000
(1531471703.673395) can0 322#0000030000000069
(1531471703.674511) can0 324#0200000000000069
(1531471703.676475) can0 320#008E000000000069
(1531471703.678462) can0 324#0200000000000069
(1531471703.680447) can0 322#0000030000000069
(1531471703.682407) can0 320#008E000000000069
(1531471703.691437) can0 322#0000030000000069
(1531471703.693167) can0 324#0200000000000069
(1531471703.695171) can0 320#008E000000000069
(1531471703.697084) can0 324#0200000000000069
(1531471703.699010) can0 322#0000030000000069
(1531471703.701010) can0 320#008E000000000069
(1531471703.709935) can0 322#0000030000000069
(1531471703.711810) can0 324#0200000000000069
(1531471703.713804) can0 320#008D000000000069
(1531471703.715714) can0 324#0200000000000069
(1531471703.717658) can0 322#0000030000000069
(1531471703.719637) can0 320#008D000000000069
(1531471703.728447) can0 322#0000030000000069
(1531471703.730433) can0 324#0200000000000069
(1531471703.732395) can0 320#008D000000000069
(1531471703.734357) can0 320#008D000000000069
(1531471703.736318) can0 324#0200000000000069
(1531471703.738329) can0 320#008D000000000069
(1531471703.746167) can0 727#04010100020000
(1531471703.747005) can0 322#0000030000000069
(1531471703.748107) can0 324#0200000000000069
(1531471703.750084) can0 320#008D000000000069
(1531471703.752032) can0 322#0000030000000069
(1531471703.753997) can0 322#0000030000000069
(1531471703.755916) can0 320#008D000000000069
(1531471703.757987) can0 280#490E93370E001B0E
(1531471703.759899) can0 621#000080FF907FAB00
(1531471703.765587) can0 322#0000030000000069
(1531471703.767722) can0 324#0200000000000069
(1531471703.769669) can0 320#008C000000000069
(1531471703.771624) can0 320#008C000000000069
(1531471703.773594) can0 324#0200000000000069
(1531471703.775654) can0 5A0#0180000000000000
(1531471703.777538) can0 320#1A00FFEB11461390
(1531471703.784228) can0 322#0000030000000069
(1531471703.785396) can0 324#0200000000000069
(1531471703.787427) can0 320#008B000000000069
(1531471703.789312) can0 322#0000030000000069
(1531471703.791262) can0 322#0000030000000069
(1531471703.793257) can0 320#008B000000000069
(1531471703.795298) can0 280#490E62360E001B0E
(1531471703.797241) can0 320#1A00FFEB11471390
(1531471703.802792) can0 322#0000030000000069
(1531471703.805041) can0 324#0200000000000069
(1531471703.807000) can0 320#0089000000000069
(1531471703.809030) can0 322#0000030000000069
(1531471703.810978) can0 320#0089000000000069
(1531471703.812866) can0 5A0#0180000000000000
(1531471703.813688) can0 320#1A00FF9710C81190
(1531471703.823721) can0 322#0000030000000069
(1531471703.825740) can0 324#0200000000000069
(1531471703.827591) can0 322#0000030000000069
(1531471703.829546) can0 320#0088000000000069
(1531471703.831510) can0 5A0#0180000000000000
(1531471703.835443) can0 320#1A00FF9710C91190
(1531471703.841339) can0 322#0000030000000069
(1531471703.842301) can0 324#0200000000000069
(1531471703.843302) can0 324#0200000000000069
(1531471703.845248) can0 322#0000030000000069
(1531471703.847197) can0 324#0200000000000069
(1531471703.849184) can0 1A0#0080000000000000
(1531471703.851175) can0 5A0#01800C0000000000
(1531471703.855118) can0 320#1A00FF9710CA1190
(1531471703.857098) can0 520#504200008031C000
(1531471703.858475) can0 322#0000030000000069
(1531471703.859206) can0 324#0200000000000069
(1531471703.860955) can0 320#008A000000000069
(1531471703.862874) can0 324#0200000000000069
(1531471703.864863) can0 324#0200000000000069
(1531471703.866836) can0 320#008A000000000069
(1531471703.868786) can0 5A0#0180000000000000
(1531471703.873801) can0 320#1A00FF9710CB1190
(1531471703.878639) can0 322#0000030000000069
(1531471703.880574) can0 324#0200000000000069
(1531471703.882536) can0 322#0000030000000069
(1531471703.884498) can0 320#008A000000000069
(1531471703.886465) can0 3D0#0080000000000000
(1531471703.893872) can0 320#1A00FF9710CC1190
(1531471703.895683) can0 322#0000030000000069
(1531471703.896384) can0 324#0200000000000069
(1531471703.898244) can0 320#008C000000000069
(1531471703.900184) can0 324#0200000000000069
(1531471703.902161) can0 324#0200000000000069
(1531471703.904127) can0 322#0000030000000069
(1531471703.906115) can0 5A0#0180000000000000
(1531471703.913591) can0 320#1A00FFEB114D1390
(1531471703.915877) can0 322#0000030000000069
(1531471703.917874) can0 324#0200000000000069
(1531471703.919858) can0 322#0000030000000069
(1531471703.921781) can0 320#008C000000000069
(1531471703.923752) can0 3D0#0080000000000000
(1531471703.932798) can0 322#0000030000000069
(1531471703.934548) can0 324#0200000000000069
(1531471703.936511) can0 320#008B000000000069
(1531471703.938456) can0 322#0000030000000069
(1531471703.940436) can0 320#008B000000000069
(1531471703.942447) can0 3D0#0080000000000000
(1531471703.946334) can0 727#04010100020000
(1531471703.951608) can0 322#0000030000000069
(1531471703.952334) can0 324#0200000000000069
(1531471703.954172) can0 320#008B000000000069
(1531471703.956134) can0 324#0200000000000069
(1531471703.958085) can0 322#0000030000000069
(1531471703.960046) can0 320#008B000000000069
(1531471703.962043) can0 5D2#0000000000575657
(1531471703.972864) can0 322#0000030000000069
(1531471703.974791) can0 324#0200000000000069
(1531471703.976747) can0 322#0000030000000069
(1531471703.978691) can0 324#0200000000000069
(1531471703.980644) can0 5A0#0180000000000000
(1531471703.991522) can0 322#0000030000000069
(1531471703.993461) can0 324#0200000000000069
(1531471703.995388) can0 322#0000030000000069
(1531471703.997350) can0 320#008C000000000069
(1531471703.999329) can0 322#0000030000000069
(1531471704.001308) can0 5A0#0180000000000000
(1531471704.012093) can0 322#0000030000000069
(1531471704.014020) can0 324#0200000000000069
(1531471704.016007) can0 320#008C000000000069
(1531471704.017989) can0 322#0000030000000069
(1531471704.019985) can0 5A0#0180000000000000
(1531471704.030768) can0 322#0000030000000069
(1531471704.032678) can0 324#0200000000000069
(1531471704.034635) can0 324#0200000000000069
(1531471704.036632) can0 322#0000030000000069
(1531471704.038600) can0 5A0#0180000000000000
(1531471704.049389) can0 322#0000030000000069
(1531471704.051339) can0 324#0200000000000069
(1531471704.053271) can0 324#0200000000000069
(1531471704.055283) can0 322#0000030000000069
(1531471704.057223) can0 5A0#0180000000000000
(1531471704.067991) can0 322#0000030000000069
(1531471704.069988) can0 324#0200000000000069
(1531471704.071924) can0 324#0200000000000069
(1531471704.073970) can0 322#0000030000000069
(1531471704.075885) can0 5A0#0180000000000000
(1531471704.086689) can0 322#0000030000000069
(1531471704.088615) can0 324#0200000000000069
(1531471704.090600) can0 320#008C000000000069
(1531471704.092664) can0 324#0200000000000069
(1531471704.094489) can0 5A0#0180000000000000
(1531471704.096449) can0 320#1A00FFEB11461390
(1531471704.104313) can0 322#0000030000000069
(1531471704.106276) can0 324#0200000000000069
(1531471704.108322) can0 324#0200000000000069
(1531471704.110270) can0 322#0000030000000069
(1531471704.112184) can0 320#008C000000000069
(1531471704.113869) can0 320#1A00FFEB11471390
(1531471704.121053) can0 322#0000030000000069
(1531471704.121976) can0 324#0200000000000069
(1531471704.123943) can0 320#008D000000000069
(1531471704.125891) can0 320#008D000000000069
(1531471704.127869) can0 320#008D000000000069
(1531471704.129825) can0 324#0200000000000069
(1531471704.131806) can0 5A0#0180000000000000
(1531471704.133781) can0 320#1A00FFA900080090
(1531471704.139659) can0 322#0000030000000069
(1531471704.141632) can0 324#0200000000000069
(1531471704.144021) can0 320#008E000000000069
(1531471704.145554) can0 324#0200000000000069
(1531471704.147514) can0 322#0000030000000069
(1531471704.149492) can0 727#04010100020000
(1531471704.155406) can0 320#1A00FFEB11491390
(1531471704.157322) can0 420#85FFFF00007FFF84
(1531471704.158222) can0 322#0000030000000069
(1531471704.159303) can0 324#0200000000000069
(1531471704.161258) can0 320#008D000000000069
(1531471704.163182) can0 322#0000030000000069
(1531471704.165170) can0 322#0000030000000069
(1531471704.167136) can0 320#008D000000000069
(1531471704.169107) can0 280#490EE2370E001B0E
(1531471704.173792) can0 320#1A00FFEB114A1390
(1531471704.176785) can0 322#0000030000000069
(1531471704.178892) can0 324#0200000000000069
(1531471704.180849) can0 320#008E000000000069
(1531471704.182805) can0 320#008E000000000069
(1531471704.184798) can0 324#0200000000000069
(1531471704.186774) can0 5A0#0180000000000000
(1531471704.193742) can0 320#1A00FFEB114B1390
(1531471704.195365) can0 322#0000030000000069
(1531471704.196557) can0 324#0200000000000069
(1531471704.198524) can0 320#008F000000000069
(1531471704.200483) can0 322#0000030000000069
(1531471704.202447) can0 322#0000030000000069
(1531471704.204408) can0 320#008F000000000069
(1531471704.206371) can0 280#490EC4380E001B0E
(1531471704.213880) can0 320#1A00FFEB114C1390
(1531471704.216183) can0 322#0000030000000069
(1531471704.218163) can0 324#0200000000000069
(1531471704.220130) can0 320#008F000000000069
(1531471704.222095) can0 324#0200000000000069
(1531471704.224097) can0 5A0#0180000000000000
(1531471704.234854) can0 322#0000030000000069
(1531471704.236779) can0 324#0200000000000069
(1531471704.238756) can0 320#009D000000000069
(1531471704.240753) can0 324#0200000000000069
(1531471704.242799) can0 5A0#0180000000000000
(1531471704.253502) can0 322#0000030000000069
(1531471704.255465) can0 324#0200000000000069
(1531471704.257459) can0 322#0000030000000069
(1531471704.259424) can0 320#009D000000000069
(1531471704.261323) can0 5A0#0180000000000000
(1531471704.272267) can0 322#0000030000000069
(1531471704.274145) can0 324#0200000000000069
(1531471704.276079) can0 322#0000030000000069
(1531471704.278032) can0 320#009D000000000069
(1531471704.279996) can0 5A0#0180000000000000
(1531471704.291338) can0 322#0000030000000069
(1531471704.292806) can0 324#0200000000000069
(1531471704.294708) can0 322#0000030000000069
(1531471704.296643) can0 320#009D000000000069
(1531471704.298618) can0 5A0#0180000000000000
(1531471704.309455) can0 322#0000030000000069
(1531471704.311377) can0 324#0200000000000069
(1531471704.313335) can0 324#0200000000000069
(1531471704.315283) can0 320#009D000000000069
(1531471704.317264) can0 320#1A00FF93140D1690
(1531471704.328112) can0 322#0000030000000069
(1531471704.330051) can0 324#0200000000000069
(1531471704.332037) can0 324#0200000000000069
(1531471704.333965) can0 322#0000030000000069
(1531471704.335908) can0 5A0#0180000000000000
(1531471704.337849) can0 320#1A00FF93140E1690
(1531471704.345709) can0 322#0000030000000069
(1531471704.347652) can0 324#0200000000000069
(1531471704.349600) can0 322#0000030000000069
(1531471704.351590) can0 320#009E000000000069
(1531471704.353535) can0 3D0#0080000000000000
(1531471704.355503) can0 320#1A00FF93140F1690
(1531471704.357450) can0 420#85FFFF00007FFF84
(1531471704.363717) can0 322#0000030000000069
(1531471704.363724) can0 324#0200000000000069
(1531471704.365363) can0 320#009E000000000069
(1531471704.367301) can0 324#0200000000000069
(1531471704.369273) can0 324#0200000000000069
(1531471704.371237) can0 322#0000030000000069
(1531471704.373191) can0 5A0#0180000000000000
(1531471704.375266) can0 320#1A00FF9314001690
(1531471704.383204) can0 322#0000030000000069
(1531471704.385046) can0 324#0200000000000069
(1531471704.386995) can0 324#0200000000000069
(1531471704.388967) can0 322#0000030000000069
(1531471704.390896) can0 3D0#0080000000000000
(1531471704.393802) can0 320#1A00FF9314011690
(1531471704.399916) can0 322#0000030000000069
(1531471704.400662) can0 324#0200000000000069
(1531471704.402675) can0 320#009E000000000069
(1531471704.404599) can0 320#009E000000000069
(1531471704.406556) can0 320#009E000000000069
(1531471704.408578) can0 324#0200000000000069
(1531471704.410484) can0 5A0#0180000000000000
(1531471704.413688) can0 320#1A00FF9314021690
(1531471704.420315) can0 322#0000030000000069
(1531471704.422264) can0 324#0200000000000069
(1531471704.424187) can0 324#0200000000000069
(1531471704.426222) can0 322#0000030000000069
(1531471704.428146) can0 320#009D000000000069
(1531471704.434430) can0 320#1A00FF9314031690
(1531471704.437084) can0 322#0000030000000069
(1531471704.437962) can0 324#0200000000000069
(1531471704.439951) can0 320#009E000000000069
(1531471704.442061) can0 320#009E000000000069
(1531471704.443856) can0 320#009E000000000069
(1531471704.445858) can0 320#009E000000000069
(1531471704.447811) can0 5A0#0180000000000000
(1531471704.455653) can0 320#1A00FF9314041690
(1531471704.457586) can0 520#55C400008031C000
(1531471704.459579) can0 320#009E000000000069
(1531471704.461506) can0 320#009E000000000069
(1531471704.463476) can0 324#0200000000000069
(1531471704.465439) can0 320#009E000000000069
(1531471704.476292) can0 320#1A00FF9314051690
(1531471704.478201) can0 322#0000030000000069
(1531471704.480147) can0 320#009E000000000069
(1531471704.482108) can0 324#0200000000000069
(1531471704.484074) can0 5A0#0180000000000000
(1531471704.492777) can0 322#0000030000000069
(1531471704.494910) can0 324#0200000000000069
(1531471704.496817) can0 320#009D000000000069
(1531471704.498797) can0 324#0200000000000069
(1531471704.500772) can0 322#0000030000000069
(1531471704.502702) can0 320#009D000000000069
(1531471704.511625) can0 322#0000030000000069
(1531471704.513582) can0 324#0200000000000069
(1531471704.515469) can0 320#009D000000000069
(1531471704.517451) can0 320#1A00FF9314071690
(1531471704.519412) can0 320#009D000000000069
(1531471704.521375) can0 3D0#0080000000000000
(1531471704.530434) can0 322#0000030000000069
(1531471704.532174) can0 324#0200000000000069
(1531471704.534133) can0 320#009D000000000069
(1531471704.536097) can0 322#0000030000000069
(1531471704.538045) can0 322#0000030000000069
(1531471704.540023) can0 1A0#0080000000000000
(1531471704.544985) can0 727#04010100020000
(1531471704.549331) can0 322#0000030000000069
(1531471704.550000) can0 324#0200000000000069
(1531471704.551789) can0 320#009D000000000069
(1531471704.553749) can0 324#0200000000000069
(1531471704.555716) can0 324#0200000000000069
(1531471704.557730) can0 320#009D000000000069
(1531471704.559653) can0 320#009D000000000069
(1531471704.561604) can0 5A0#0180000000000000
(1531471704.569394) can0 322#0000030000000069
(1531471704.571426) can0 324#0200000000000069
(1531471704.573385) can0 320#009D000000000069
(1531471704.575392) can0 320#009D000000000069
(1531471704.577313) can0 320#1A00FF93140A1690
(1531471704.579272) can0 320#009D000000000069
(1531471704.588191) can0 322#0000030000000069
(1531471704.590070) can0 324#0200000000000069
(1531471704.592080) can0 320#009C000000000069
(1531471704.593997) can0 324#0200000000000069
(1531471704.595945) can0 322#0000030000000069
(1531471704.597960) can0 3D0#0080000000000000
(1531471704.606773) can0 322#0000030000000069
(1531471704.608773) can0 324#0200000000000069
(1531471704.610671) can0 320#009C000000000069
(1531471704.612650) can0 324#0200000000000069
(1531471704.614627) can0 324#0200000000000069
(1531471704.616925) can0 320#1A00FF93140C1690
(1531471704.625505) can0 322#0000030000000069
(1531471704.627349) can0 324#0200000000000069
(1531471704.629321) can0 320#009C000000000069
(1531471704.631779) can0 324#0200000000000069
(1531471704.633249) can0 324#0200000000000069
(1531471704.635204) can0 5A0#0180000000000000
(1531471704.637175) can0 320#1A00FF93140D1690
(1531471704.643960) can0 322#0000030000000069
(1531471704.645007) can0 324#0200000000000069
(1531471704.646998) can0 320#009C000000000069
(1531471704.648949) can0 322#0000030000000069
(1531471704.650913) can0 322#0000030000000069
(1531471704.652918) can0 320#009C000000000069
(1531471704.654874) can0 280#490EE2400E001B0E
(1531471704.656840) can0 320#1A00FF93140E1690
(1531471704.662619) can0 322#0000030000000069
(1531471704.664651) can0 324#0200000000000069
(1531471704.666605) can0 320#009A000000000069
(1531471704.668568) can0 320#009A000000000069
(1531471704.670545) can0 324#0200000000000069
(1531471704.672508) can0 5A0#0180000000000000
(1531471704.673664) can0 320#1A00FF93140F1690
(1531471704.683287) can0 322#0000030000000069
(1531471704.685210) can0 324#0200000000000069
(1531471704.687575) can0 320#009A000000000069
(1531471704.689172) can0 324#0200000000000069
(1531471704.691157) can0 5A0#0180000000000000
(1531471704.695051) can0 320#1A00FF9314001690
(1531471704.700938) can0 322#0000030000000069
(1531471704.702887) can0 324#0200000000000069
(1531471704.704877) can0 322#0000030000000069
(1531471704.706840) can0 322#0000030000000069
(1531471704.708792) can0 320#0099000000000069
(1531471704.710769) can0 5A0#01800E0000000000
(1531471704.714011) can0 320#1A00FF3F13811490
(1531471704.718367) can0 322#0000030000000069
(1531471704.720680) can0 324#0200000000000069
(1531471704.722604) can0 320#0099000000000069
(1531471704.724561) can0 322#0000030000000069
(1531471704.726520) can0 320#0099000000000069
(1531471704.728480) can0 5A0#0180000000000000
(1531471704.733739) can0 320#1A00FF3F13821490
(1531471704.738235) can0 322#0000030000000069
(1531471704.740226) can0 324#0200000000000069
(1531471704.742277) can0 324#0200000000000069
(1531471704.744114) can0 324#0200000000000069
(1531471704.746074) can0 3D0#0080000000000000
(1531471704.748069) can0 5A0#01800E0000000000
(1531471704.753725) can0 320#1A00FF3F13831490
(1531471704.755909) can0 420#85FFFF00007FFF84
(1531471704.757929) can0 51A#FDFFFFFFFFFFFF03
(1531471704.759927) can0 322#0000030000000069
(1531471704.761829) can0 322#0000030000000069
(1531471704.763783) can0 320#0097000000000069
(1531471704.765777) can0 62E#31C080F10F961A
(1531471704.776540) can0 320#1A00FF3F13841490
(1531471704.778583) can0 322#0000030000000069
(1531471704.780539) can0 324#0200000000000069
(1531471704.782554) can0 322#0000030000000069
(1531471704.784436) can0 5A0#0180000000000000
(1531471704.795183) can0 322#0000030000000069
(1531471704.797149) can0 324#0200000000000069
(1531471704.799108) can0 324#0200000000000069
(1531471704.801114) can0 322#0000030000000069
(1531471704.803026) can0 5A0#0180000000000000
(1531471704.813833) can0 322#0000030000000069
(1531471704.815767) can0 324#0200000000000069
(1531471704.817719) can0 324#0200000000000069
(1531471704.819678) can0 322#0000030000000069
(1531471704.821659) can0 5A0#0180000000000000
(1531471704.832541) can0 322#0000030000000069
(1531471704.834457) can0 324#0200000000000069
(1531471704.836483) can0 320#0090000000000069
(1531471704.838477) can0 322#0000030000000069
(1531471704.840427) can0 5A0#0180000000000000
(1531471704.851327) can0 322#0000030000000069
(1531471704.853180) can0 324#0200000000000069
(1531471704.855030) can0 320#0090000000000069
(1531471704.856990) can0 324#0200000000000069
(1531471704.859004) can0 5A0#0180000000000000
(1531471704.869795) can0 322#0000030000000069
(1531471704.871700) can0 324#0200000000000069
(1531471704.873656) can0 320#0090000000000069
(1531471704.875655) can0 324#0200000000000069
(1531471704.877598) can0 5A0#0180000000000000
(1531471704.888410) can0 322#0000030000000069
(1531471704.890357) can0 324#0200000000000069
(1531471704.892316) can0 320#0090000000000069
(1531471704.894318) can0 324#0200000000000069
(1531471704.896320) can0 5A0#0180000000000000
(1531471704.907061) can0 322#0000030000000069
(1531471704.909031) can0 324#0200000000000069
(1531471704.910971) can0 320#008D000000000069
(1531471704.912905) can0 324#0200000000000069
(1531471704.914874) can0 5A0#0180000000000000
(1531471704.916849) can0 320#1A00FFEB11471390
(1531471704.922721) can0 322#0000030000000069
(1531471704.924828) can0 324#0200000000000069
(1531471704.926665) can0 320#008B000000000069
(1531471704.928621) can0 320#008B000000000069
(1531471704.930572) can0 324#0200000000000069
(1531471704.932545) can0 320#008B000000000069
(1531471704.933768) can0 320#1A00FFEB11481390
(1531471704.941381) can0 322#0000030000000069
(1531471704.943373) can0 324#0200000000000069
(1531471704.945311) can0 320#008A000000000069
(1531471704.947288) can0 320#008A000000000069
(1531471704.949257) can0 324#0200000000000069
(1531471704.951288) can0 727#04010100020000
(1531471704.955143) can0 320#1A00FF9710C91190
(1531471704.957070) can0 420#85FFFF00007FFF84
(1531471704.959888) can0 322#0000030000000069
(1531471704.961004) can0 324#0200000000000069
(1531471704.962971) can0 320#0087000000000069
(1531471704.964941) can0 322#0000030000000069
(1531471704.966883) can0 322#0000030000000069
(1531471704.968844) can0 320#0087000000000069
(1531471704.970822) can0 280#490E44340E001B0E
(1531471704.974258) can0 320#1A00FF9710CA1190
(1531471704.978517) can0 322#0000030000000069
(1531471704.980630) can0 324#0200000000000069
(1531471704.982583) can0 320#0088000000000069
(1531471704.984558) can0 322#0000030000000069
(1531471704.986524) can0 324#0200000000000069
(1531471704.988483) can0 5A0#0180000000000000
(1531471704.993745) can0 320#1A00FF9710CB1190
(1531471704.998312) can0 322#0000030000000069
(1531471705.000268) can0 324#0200000000000069
(1531471705.002225) can0 324#0200000000000069
(1531471705.004243) can0 324#0200000000000069
(1531471705.006214) can0 1A0#0080000000000000
(1531471705.008170) can0 5A0#01800C0000000000
(1531471705.013734) can0 320#1A00FF9710CC1190
(1531471705.015595) can0 322#0000030000000069
(1531471705.017929) can0 324#0200000000000069
(1531471705.019896) can0 320#0081000000000069
(1531471705.021853) can0 322#0000030000000069
(1531471705.023819) can0 320#0081000000000069
(1531471705.025821) can0 5A0#0180000000000000
(1531471705.033580) can0 320#1A00FF430F8D1090
(1531471705.035588) can0 322#0000030000000069
(1531471705.037545) can0 324#0200000000000069
(1531471705.039516) can0 324#0200000000000069
(1531471705.041571) can0 324#0200000000000069
(1531471705.043455) can0 1A0#0080000000000000
(1531471705.052782) can0 322#0000030000000069
(1531471705.054237) can0 324#0200000000000069
(1531471705.057796) can0 320#007A000000000069
(1531471705.058121) can0 324#0200000000000069
(1531471705.060129) can0 322#0000030000000069
(1531471705.062095) can0 320#007A000000000069
(1531471705.064057) can0 5A0#01800A0000000000
(1531471705.071688) can0 322#0000030000000069
(1531471705.073871) can0 324#0200000000000069
(1531471705.075858) can0 320#0079000000000069
(1531471705.077790) can0 320#0079000000000069
(1531471705.079748) can0 324#0200000000000069
(1531471705.081717) can0 5A0#0180000000000000
(1531471705.090594) can0 322#0000030000000069
(1531471705.092538) can0 324#0200000000000069
(1531471705.094474) can0 320#0076000000000069
(1531471705.096431) can0 320#0076000000000069
(1531471705.098400) can0 322#0000030000000069
(1531471705.100359) can0 320#0076000000000069
(1531471705.109233) can0 322#0000030000000069
(1531471705.111153) can0 324#0200000000000069
(1531471705.113112) can0 320#0075000000000069
(1531471705.115098) can0 324#0200000000000069
(1531471705.117069) can0 322#0000030000000069
(1531471705.119121) can0 3D0#0080000000000000
(1531471705.128069) can0 322#0000030000000069
(1531471705.129826) can0 324#0200000000000069
(1531471705.131796) can0 320#0071000000000069
(1531471705.133705) can0 324#0200000000000069
(1531471705.135690) can0 322#0000030000000069
(1531471705.137645) can0 3D0#0080000000000000
(1531471705.144673) can0 727#04010100020000
(1531471705.146516) can0 322#0000030000000069
(1531471705.147457) can0 324#0200000000000069
(1531471705.149419) can0 320#0070000000000069
(1531471705.151383) can0 320#0070000000000069
(1531471705.153340) can0 320#0070000000000069
(1531471705.155358) can0 324#0200000000000069
(1531471705.157252) can0 5A0#0180000000000000
(1531471705.165075) can0 322#0000030000000069
(1531471705.167086) can0 324#0200000000000069
(1531471705.169046) can0 320#006E000000000069
(1531471705.171151) can0 320#006E000000000069
(1531471705.173057) can0 324#0200000000000069
(1531471705.174954) can0 5A0#0180000000000000
(1531471705.176968) can0 320#1A00FF9B0CC40D90
(1531471705.183629) can0 322#0000030000000069
(1531471705.184735) can0 324#0200000000000069
(1531471705.186717) can0 320#0070000000000069
(1531471705.188657) can0 322#0000030000000069
(1531471705.190621) can0 322#0000030000000069
(1531471705.195512) can0 320#0070000000000069
(1531471705.195520) can0 280#490E27260E001B0E
(1531471705.196534) can0 320#1A00FF9B0CC50D90
(1531471705.202141) can0 322#0000030000000069
(1531471705.204373) can0 324#0200000000000069
(1531471705.206335) can0 320#006C000000000069
(1531471705.208386) can0 322#0000030000000069
(1531471705.210271) can0 324#0200000000000069
(1531471705.212227) can0 5A0#0180000000000000
(1531471705.213640) can0 320#1A00FF9B0CC60D90
(1531471705.223035) can0 322#0000030000000069
(1531471705.225045) can0 324#0200000000000069
(1531471705.226936) can0 322#0000030000000069
(1531471705.231262) can0 320#006A000000000069
(1531471705.231268) can0 5A0#0180000000000000
(1531471705.233751) can0 320#1A00FF490B470C90
(1531471705.240786) can0 322#0000030000000069
(1531471705.242750) can0 324#0200000000000069
(1531471705.244615) can0 322#0000030000000069
(1531471705.246572) can0 320#005F000000000069
(1531471705.248548) can0 1A0#0080000000000000
(1531471705.251174) can0 5A0#0180070000000000
(1531471705.253808) can0 320#1A00FFF309C80A90
